# vsim +UVM_TESTNAME=rf_wr_ctl_test -assertdebug -coverage -fsmdebug -c -debugDB top_opt 
# Loading sv_std.std
# Loading mtiUvm.uvm_pkg
# Loading work.param_pkg
# Loading work.seq_item_pkg
# Loading work.reg_model_pkg
# Loading work.seq_lib_pkg
# Loading work.rf_agent_pkg
# Loading work.test_lib_pkg
# Loading work.apb_rf_pkg
# Loading work.top_sv_unit
# Loading work.top(fast)
# Loading work.apb_rf_intf(fast)
# Loading work.apb_register_file(fast)
# Loading D:\questasim_10.0b\uvm-1.0p1\win32\uvm_dpi.dll
# ** Warning: (vsim-WLF-5000) WLF file currently in use: vsim.wlf
#           File in use by:   Hostname:   ProcessID: 117
#           Attempting to use alternate WLF file "./wlftfytn70".
# ** Warning: (vsim-WLF-5001) Could not open WLF file: vsim.wlf
#           Using alternate file: ./wlftfytn70
# ** Note: (vsim-8716) Reusing existing debug database vsim.dbg.
# 1
# ----------------------------------------------------------------
# UVM-1.0p1 
# (C) 2007-2011 Mentor Graphics Corporation
# (C) 2007-2011 Cadence Design Systems, Inc.
# (C) 2006-2011 Synopsys, Inc.
# ----------------------------------------------------------------
# UVM_INFO @ 0: reporter [RNTST] Running test rf_wr_ctl_test...
# UVM_INFO @ 0: reporter [UVMTOP] UVM testbench topology:
# --------------------------------------------------------------
# Name                       Type                    Size  Value
# --------------------------------------------------------------
# uvm_test_top               rf_wr_ctl_test          -     @460 
#   rf_env_h                 apb_rf_env              -     @469 
#     predictor_h            uvm_component           -     @537 
#       bus_in               uvm_analysis_imp        -     @544 
#       reg_ap               uvm_analysis_port       -     @552 
#     rf_agent_h             rf_agent                -     @489 
#       rf_drv               rf_driver               -     @672 
#         rsp_port           uvm_analysis_port       -     @687 
#         sqr_pull_port      uvm_seq_item_pull_port  -     @679 
#       rf_mon               rf_monitor              -     @695 
#         mon_port           uvm_analysis_port       -     @702 
#       rf_sqr               rf_sequencer            -     @563 
#         rsp_export         uvm_analysis_export     -     @570 
#         seq_item_export    uvm_seq_item_pull_imp   -     @664 
#         arbitration_queue  array                   0     -    
#         lock_queue         array                   0     -    
#         num_last_reqs      integral                32    'd1  
#         num_last_rsps      integral                32    'd1  
#     rf_scb                 apb_rf_scb              -     @522 
#       scb_imp              uvm_analysis_imp        -     @529 
# --------------------------------------------------------------
# 
# UVM_INFO E:/UVM/APB_register_file/explicit/tb/seq_lib//reg_seq_write_read_ctl.svh(19) @ 0: uvm_test_top.rf_env_h.rf_agent_h.rf_sqr@@seq_1 [Initial ctl reg] ctl_reg = 0
# en = 0
# bl_y = 0
# bl_r = 0
# profile = 0
# 
# UVM_INFO E:/UVM/APB_register_file/explicit/tb/seq_lib//reg_seq_write_read_ctl.svh(28) @ 90: uvm_test_top.rf_env_h.rf_agent_h.rf_sqr@@seq_1 [After Write ctl reg] ctl_reg = 0
# en = 0
# bl_y = 0
# bl_r = 0
# profile = 0
# 
# UVM_INFO E:/UVM/APB_register_file/explicit/tb//apb_rf_scb.svh(15) @ 105: uvm_test_top.rf_env_h.rf_scb [apb_rf_scb] data rcvd from mon_port, wr_enb =1, addr =0, din =d, dout =0
# UVM_INFO E:/UVM/APB_register_file/explicit/tb//apb_rf_scb.svh(21) @ 105: uvm_test_top.rf_env_h.rf_scb [apb_rf_scb] input data is stored in ctl d
# UVM_INFO E:/UVM/APB_register_file/explicit/tb/seq_lib//reg_seq_write_read_ctl.svh(36) @ 130: uvm_test_top.rf_env_h.rf_agent_h.rf_sqr@@seq_1 [After read ctl reg] ctl_reg = d
# en = 1
# bl_y = 0
# bl_r = 1
# profile = 1
# read_out = d
# UVM_INFO E:/UVM/APB_register_file/explicit/tb//apb_rf_scb.svh(15) @ 145: uvm_test_top.rf_env_h.rf_scb [apb_rf_scb] data rcvd from mon_port, wr_enb =0, addr =0, din =d, dout =d
# UVM_INFO E:/UVM/APB_register_file/explicit/tb//apb_rf_scb.svh(41) @ 145: uvm_test_top.rf_env_h.rf_scb [PASSED] ==== TEST IS PASSED ====
# UVM_INFO E:/UVM/APB_register_file/explicit/tb//apb_rf_scb.svh(64) @ 145: uvm_test_top.rf_env_h.rf_scb [apb_rf_scb] output data is d
# UVM_INFO E:/UVM/APB_register_file/explicit/tb/seq_lib//reg_seq_write_ctl.svh(21) @ 170: uvm_test_top.rf_env_h.rf_agent_h.rf_sqr@@seq_2 [After Write ctl reg] ctl_reg = d
# en = 1
# bl_y = 0
# bl_r = 1
# profile = 1
# 
# UVM_INFO E:/UVM/APB_register_file/explicit/tb//apb_rf_scb.svh(15) @ 185: uvm_test_top.rf_env_h.rf_scb [apb_rf_scb] data rcvd from mon_port, wr_enb =1, addr =0, din =2, dout =0
# UVM_INFO E:/UVM/APB_register_file/explicit/tb//apb_rf_scb.svh(21) @ 185: uvm_test_top.rf_env_h.rf_scb [apb_rf_scb] input data is stored in ctl 2
# UVM_INFO E:/UVM/APB_register_file/explicit/tb/seq_lib//reg_seq_read_ctl.svh(20) @ 210: uvm_test_top.rf_env_h.rf_agent_h.rf_sqr@@seq_3 [After read ctl reg] ctl_reg = 2
# en = 0
# bl_y = 1
# bl_r = 0
# profile = 0
# read_out = 2
# UVM_INFO E:/UVM/APB_register_file/explicit/tb/seq_lib//reg_seq_write_read_ctl.svh(19) @ 210: uvm_test_top.rf_env_h.rf_agent_h.rf_sqr@@seq_1 [Initial ctl reg] ctl_reg = 0
# en = 0
# bl_y = 0
# bl_r = 0
# profile = 0
# 
# UVM_INFO E:/UVM/APB_register_file/explicit/tb//apb_rf_scb.svh(15) @ 225: uvm_test_top.rf_env_h.rf_scb [apb_rf_scb] data rcvd from mon_port, wr_enb =0, addr =0, din =2, dout =2
# UVM_INFO E:/UVM/APB_register_file/explicit/tb//apb_rf_scb.svh(41) @ 225: uvm_test_top.rf_env_h.rf_scb [PASSED] ==== TEST IS PASSED ====
# UVM_INFO E:/UVM/APB_register_file/explicit/tb//apb_rf_scb.svh(64) @ 225: uvm_test_top.rf_env_h.rf_scb [apb_rf_scb] output data is 2
# UVM_INFO E:/UVM/APB_register_file/explicit/tb/seq_lib//reg_seq_write_read_ctl.svh(28) @ 250: uvm_test_top.rf_env_h.rf_agent_h.rf_sqr@@seq_1 [After Write ctl reg] ctl_reg = 2
# en = 0
# bl_y = 1
# bl_r = 0
# profile = 0
# 
# UVM_INFO E:/UVM/APB_register_file/explicit/tb//apb_rf_scb.svh(15) @ 265: uvm_test_top.rf_env_h.rf_scb [apb_rf_scb] data rcvd from mon_port, wr_enb =1, addr =0, din =1, dout =0
# UVM_INFO E:/UVM/APB_register_file/explicit/tb//apb_rf_scb.svh(21) @ 265: uvm_test_top.rf_env_h.rf_scb [apb_rf_scb] input data is stored in ctl 1
# UVM_INFO E:/UVM/APB_register_file/explicit/tb/seq_lib//reg_seq_write_read_ctl.svh(36) @ 290: uvm_test_top.rf_env_h.rf_agent_h.rf_sqr@@seq_1 [After read ctl reg] ctl_reg = 1
# en = 1
# bl_y = 0
# bl_r = 0
# profile = 0
# read_out = 1
# UVM_INFO E:/UVM/APB_register_file/explicit/tb//apb_rf_scb.svh(15) @ 305: uvm_test_top.rf_env_h.rf_scb [apb_rf_scb] data rcvd from mon_port, wr_enb =0, addr =0, din =1, dout =1
# UVM_INFO E:/UVM/APB_register_file/explicit/tb//apb_rf_scb.svh(41) @ 305: uvm_test_top.rf_env_h.rf_scb [PASSED] ==== TEST IS PASSED ====
# UVM_INFO E:/UVM/APB_register_file/explicit/tb//apb_rf_scb.svh(64) @ 305: uvm_test_top.rf_env_h.rf_scb [apb_rf_scb] output data is 1
# UVM_INFO E:/UVM/APB_register_file/explicit/tb/seq_lib//reg_seq_write_ctl.svh(21) @ 330: uvm_test_top.rf_env_h.rf_agent_h.rf_sqr@@seq_2 [After Write ctl reg] ctl_reg = 1
# en = 1
# bl_y = 0
# bl_r = 0
# profile = 0
# 
# UVM_INFO E:/UVM/APB_register_file/explicit/tb//apb_rf_scb.svh(15) @ 345: uvm_test_top.rf_env_h.rf_scb [apb_rf_scb] data rcvd from mon_port, wr_enb =1, addr =0, din =a, dout =0
# UVM_INFO E:/UVM/APB_register_file/explicit/tb//apb_rf_scb.svh(21) @ 345: uvm_test_top.rf_env_h.rf_scb [apb_rf_scb] input data is stored in ctl a
# UVM_INFO E:/UVM/APB_register_file/explicit/tb/seq_lib//reg_seq_read_ctl.svh(20) @ 370: uvm_test_top.rf_env_h.rf_agent_h.rf_sqr@@seq_3 [After read ctl reg] ctl_reg = a
# en = 0
# bl_y = 1
# bl_r = 0
# profile = 1
# read_out = a
# UVM_INFO E:/UVM/APB_register_file/explicit/tb/seq_lib//reg_seq_write_read_ctl.svh(19) @ 370: uvm_test_top.rf_env_h.rf_agent_h.rf_sqr@@seq_1 [Initial ctl reg] ctl_reg = 0
# en = 0
# bl_y = 0
# bl_r = 0
# profile = 0
# 
# UVM_INFO E:/UVM/APB_register_file/explicit/tb//apb_rf_scb.svh(15) @ 385: uvm_test_top.rf_env_h.rf_scb [apb_rf_scb] data rcvd from mon_port, wr_enb =0, addr =0, din =a, dout =a
# UVM_INFO E:/UVM/APB_register_file/explicit/tb//apb_rf_scb.svh(41) @ 385: uvm_test_top.rf_env_h.rf_scb [PASSED] ==== TEST IS PASSED ====
# UVM_INFO E:/UVM/APB_register_file/explicit/tb//apb_rf_scb.svh(64) @ 385: uvm_test_top.rf_env_h.rf_scb [apb_rf_scb] output data is a
# UVM_INFO E:/UVM/APB_register_file/explicit/tb/seq_lib//reg_seq_write_read_ctl.svh(28) @ 410: uvm_test_top.rf_env_h.rf_agent_h.rf_sqr@@seq_1 [After Write ctl reg] ctl_reg = a
# en = 0
# bl_y = 1
# bl_r = 0
# profile = 1
# 
# UVM_INFO E:/UVM/APB_register_file/explicit/tb//apb_rf_scb.svh(15) @ 425: uvm_test_top.rf_env_h.rf_scb [apb_rf_scb] data rcvd from mon_port, wr_enb =1, addr =0, din =2, dout =0
# UVM_INFO E:/UVM/APB_register_file/explicit/tb//apb_rf_scb.svh(21) @ 425: uvm_test_top.rf_env_h.rf_scb [apb_rf_scb] input data is stored in ctl 2
# UVM_INFO E:/UVM/APB_register_file/explicit/tb/seq_lib//reg_seq_write_read_ctl.svh(36) @ 450: uvm_test_top.rf_env_h.rf_agent_h.rf_sqr@@seq_1 [After read ctl reg] ctl_reg = 2
# en = 0
# bl_y = 1
# bl_r = 0
# profile = 0
# read_out = 2
# UVM_INFO E:/UVM/APB_register_file/explicit/tb//apb_rf_scb.svh(15) @ 465: uvm_test_top.rf_env_h.rf_scb [apb_rf_scb] data rcvd from mon_port, wr_enb =0, addr =0, din =2, dout =2
# UVM_INFO E:/UVM/APB_register_file/explicit/tb//apb_rf_scb.svh(41) @ 465: uvm_test_top.rf_env_h.rf_scb [PASSED] ==== TEST IS PASSED ====
# UVM_INFO E:/UVM/APB_register_file/explicit/tb//apb_rf_scb.svh(64) @ 465: uvm_test_top.rf_env_h.rf_scb [apb_rf_scb] output data is 2
# UVM_INFO E:/UVM/APB_register_file/explicit/tb/seq_lib//reg_seq_write_ctl.svh(21) @ 490: uvm_test_top.rf_env_h.rf_agent_h.rf_sqr@@seq_2 [After Write ctl reg] ctl_reg = 2
# en = 0
# bl_y = 1
# bl_r = 0
# profile = 0
# 
# UVM_INFO E:/UVM/APB_register_file/explicit/tb//apb_rf_scb.svh(15) @ 505: uvm_test_top.rf_env_h.rf_scb [apb_rf_scb] data rcvd from mon_port, wr_enb =1, addr =0, din =4, dout =0
# UVM_INFO E:/UVM/APB_register_file/explicit/tb//apb_rf_scb.svh(21) @ 505: uvm_test_top.rf_env_h.rf_scb [apb_rf_scb] input data is stored in ctl 4
# UVM_INFO E:/UVM/APB_register_file/explicit/tb/seq_lib//reg_seq_read_ctl.svh(20) @ 530: uvm_test_top.rf_env_h.rf_agent_h.rf_sqr@@seq_3 [After read ctl reg] ctl_reg = 4
# en = 0
# bl_y = 0
# bl_r = 1
# profile = 0
# read_out = 4
# UVM_INFO E:/UVM/APB_register_file/explicit/tb/seq_lib//reg_seq_write_read_ctl.svh(19) @ 530: uvm_test_top.rf_env_h.rf_agent_h.rf_sqr@@seq_1 [Initial ctl reg] ctl_reg = 0
# en = 0
# bl_y = 0
# bl_r = 0
# profile = 0
# 
# UVM_INFO E:/UVM/APB_register_file/explicit/tb//apb_rf_scb.svh(15) @ 545: uvm_test_top.rf_env_h.rf_scb [apb_rf_scb] data rcvd from mon_port, wr_enb =0, addr =0, din =4, dout =4
# UVM_INFO E:/UVM/APB_register_file/explicit/tb//apb_rf_scb.svh(41) @ 545: uvm_test_top.rf_env_h.rf_scb [PASSED] ==== TEST IS PASSED ====
# UVM_INFO E:/UVM/APB_register_file/explicit/tb//apb_rf_scb.svh(64) @ 545: uvm_test_top.rf_env_h.rf_scb [apb_rf_scb] output data is 4
# UVM_INFO E:/UVM/APB_register_file/explicit/tb/seq_lib//reg_seq_write_read_ctl.svh(28) @ 570: uvm_test_top.rf_env_h.rf_agent_h.rf_sqr@@seq_1 [After Write ctl reg] ctl_reg = 4
# en = 0
# bl_y = 0
# bl_r = 1
# profile = 0
# 
# UVM_INFO E:/UVM/APB_register_file/explicit/tb//apb_rf_scb.svh(15) @ 585: uvm_test_top.rf_env_h.rf_scb [apb_rf_scb] data rcvd from mon_port, wr_enb =1, addr =0, din =15, dout =0
# UVM_INFO E:/UVM/APB_register_file/explicit/tb//apb_rf_scb.svh(21) @ 585: uvm_test_top.rf_env_h.rf_scb [apb_rf_scb] input data is stored in ctl 15
# UVM_INFO E:/UVM/APB_register_file/explicit/tb/seq_lib//reg_seq_write_read_ctl.svh(36) @ 610: uvm_test_top.rf_env_h.rf_agent_h.rf_sqr@@seq_1 [After read ctl reg] ctl_reg = 5
# en = 1
# bl_y = 0
# bl_r = 1
# profile = 0
# read_out = 5
# UVM_INFO E:/UVM/APB_register_file/explicit/tb//apb_rf_scb.svh(15) @ 625: uvm_test_top.rf_env_h.rf_scb [apb_rf_scb] data rcvd from mon_port, wr_enb =0, addr =0, din =15, dout =5
# UVM_INFO E:/UVM/APB_register_file/explicit/tb//apb_rf_scb.svh(41) @ 625: uvm_test_top.rf_env_h.rf_scb [PASSED] ==== TEST IS PASSED ====
# UVM_INFO E:/UVM/APB_register_file/explicit/tb//apb_rf_scb.svh(64) @ 625: uvm_test_top.rf_env_h.rf_scb [apb_rf_scb] output data is 5
# UVM_INFO E:/UVM/APB_register_file/explicit/tb/seq_lib//reg_seq_write_ctl.svh(21) @ 650: uvm_test_top.rf_env_h.rf_agent_h.rf_sqr@@seq_2 [After Write ctl reg] ctl_reg = 5
# en = 1
# bl_y = 0
# bl_r = 1
# profile = 0
# 
# UVM_INFO E:/UVM/APB_register_file/explicit/tb//apb_rf_scb.svh(15) @ 665: uvm_test_top.rf_env_h.rf_scb [apb_rf_scb] data rcvd from mon_port, wr_enb =1, addr =0, din =d, dout =0
# UVM_INFO E:/UVM/APB_register_file/explicit/tb//apb_rf_scb.svh(21) @ 665: uvm_test_top.rf_env_h.rf_scb [apb_rf_scb] input data is stored in ctl d
# UVM_INFO E:/UVM/APB_register_file/explicit/tb/seq_lib//reg_seq_read_ctl.svh(20) @ 690: uvm_test_top.rf_env_h.rf_agent_h.rf_sqr@@seq_3 [After read ctl reg] ctl_reg = d
# en = 1
# bl_y = 0
# bl_r = 1
# profile = 1
# read_out = d
# UVM_INFO E:/UVM/APB_register_file/explicit/tb/seq_lib//reg_seq_write_read_ctl.svh(19) @ 690: uvm_test_top.rf_env_h.rf_agent_h.rf_sqr@@seq_1 [Initial ctl reg] ctl_reg = 0
# en = 0
# bl_y = 0
# bl_r = 0
# profile = 0
# 
# UVM_INFO E:/UVM/APB_register_file/explicit/tb//apb_rf_scb.svh(15) @ 705: uvm_test_top.rf_env_h.rf_scb [apb_rf_scb] data rcvd from mon_port, wr_enb =0, addr =0, din =d, dout =d
# UVM_INFO E:/UVM/APB_register_file/explicit/tb//apb_rf_scb.svh(41) @ 705: uvm_test_top.rf_env_h.rf_scb [PASSED] ==== TEST IS PASSED ====
# UVM_INFO E:/UVM/APB_register_file/explicit/tb//apb_rf_scb.svh(64) @ 705: uvm_test_top.rf_env_h.rf_scb [apb_rf_scb] output data is d
# UVM_INFO E:/UVM/APB_register_file/explicit/tb/seq_lib//reg_seq_write_read_ctl.svh(28) @ 730: uvm_test_top.rf_env_h.rf_agent_h.rf_sqr@@seq_1 [After Write ctl reg] ctl_reg = d
# en = 1
# bl_y = 0
# bl_r = 1
# profile = 1
# 
# UVM_INFO E:/UVM/APB_register_file/explicit/tb//apb_rf_scb.svh(15) @ 745: uvm_test_top.rf_env_h.rf_scb [apb_rf_scb] data rcvd from mon_port, wr_enb =1, addr =0, din =1d, dout =0
# UVM_INFO E:/UVM/APB_register_file/explicit/tb//apb_rf_scb.svh(21) @ 745: uvm_test_top.rf_env_h.rf_scb [apb_rf_scb] input data is stored in ctl 1d
# UVM_INFO E:/UVM/APB_register_file/explicit/tb/seq_lib//reg_seq_write_read_ctl.svh(36) @ 770: uvm_test_top.rf_env_h.rf_agent_h.rf_sqr@@seq_1 [After read ctl reg] ctl_reg = d
# en = 1
# bl_y = 0
# bl_r = 1
# profile = 1
# read_out = d
# UVM_INFO E:/UVM/APB_register_file/explicit/tb//apb_rf_scb.svh(15) @ 785: uvm_test_top.rf_env_h.rf_scb [apb_rf_scb] data rcvd from mon_port, wr_enb =0, addr =0, din =1d, dout =d
# UVM_INFO E:/UVM/APB_register_file/explicit/tb//apb_rf_scb.svh(41) @ 785: uvm_test_top.rf_env_h.rf_scb [PASSED] ==== TEST IS PASSED ====
# UVM_INFO E:/UVM/APB_register_file/explicit/tb//apb_rf_scb.svh(64) @ 785: uvm_test_top.rf_env_h.rf_scb [apb_rf_scb] output data is d
# UVM_INFO E:/UVM/APB_register_file/explicit/tb/seq_lib//reg_seq_write_ctl.svh(21) @ 810: uvm_test_top.rf_env_h.rf_agent_h.rf_sqr@@seq_2 [After Write ctl reg] ctl_reg = d
# en = 1
# bl_y = 0
# bl_r = 1
# profile = 1
# 
# UVM_INFO E:/UVM/APB_register_file/explicit/tb//apb_rf_scb.svh(15) @ 825: uvm_test_top.rf_env_h.rf_scb [apb_rf_scb] data rcvd from mon_port, wr_enb =1, addr =0, din =9, dout =0
# UVM_INFO E:/UVM/APB_register_file/explicit/tb//apb_rf_scb.svh(21) @ 825: uvm_test_top.rf_env_h.rf_scb [apb_rf_scb] input data is stored in ctl 9
# UVM_INFO E:/UVM/APB_register_file/explicit/tb/seq_lib//reg_seq_read_ctl.svh(20) @ 850: uvm_test_top.rf_env_h.rf_agent_h.rf_sqr@@seq_3 [After read ctl reg] ctl_reg = 9
# en = 1
# bl_y = 0
# bl_r = 0
# profile = 1
# read_out = 9
# UVM_INFO E:/UVM/APB_register_file/explicit/tb/seq_lib//reg_seq_write_read_ctl.svh(19) @ 850: uvm_test_top.rf_env_h.rf_agent_h.rf_sqr@@seq_1 [Initial ctl reg] ctl_reg = 0
# en = 0
# bl_y = 0
# bl_r = 0
# profile = 0
# 
# UVM_INFO E:/UVM/APB_register_file/explicit/tb//apb_rf_scb.svh(15) @ 865: uvm_test_top.rf_env_h.rf_scb [apb_rf_scb] data rcvd from mon_port, wr_enb =0, addr =0, din =9, dout =9
# UVM_INFO E:/UVM/APB_register_file/explicit/tb//apb_rf_scb.svh(41) @ 865: uvm_test_top.rf_env_h.rf_scb [PASSED] ==== TEST IS PASSED ====
# UVM_INFO E:/UVM/APB_register_file/explicit/tb//apb_rf_scb.svh(64) @ 865: uvm_test_top.rf_env_h.rf_scb [apb_rf_scb] output data is 9
# UVM_INFO E:/UVM/APB_register_file/explicit/tb/seq_lib//reg_seq_write_read_ctl.svh(28) @ 890: uvm_test_top.rf_env_h.rf_agent_h.rf_sqr@@seq_1 [After Write ctl reg] ctl_reg = 9
# en = 1
# bl_y = 0
# bl_r = 0
# profile = 1
# 
# UVM_INFO E:/UVM/APB_register_file/explicit/tb//apb_rf_scb.svh(15) @ 905: uvm_test_top.rf_env_h.rf_scb [apb_rf_scb] data rcvd from mon_port, wr_enb =1, addr =0, din =1, dout =0
# UVM_INFO E:/UVM/APB_register_file/explicit/tb//apb_rf_scb.svh(21) @ 905: uvm_test_top.rf_env_h.rf_scb [apb_rf_scb] input data is stored in ctl 1
# UVM_INFO E:/UVM/APB_register_file/explicit/tb/seq_lib//reg_seq_write_read_ctl.svh(36) @ 930: uvm_test_top.rf_env_h.rf_agent_h.rf_sqr@@seq_1 [After read ctl reg] ctl_reg = 1
# en = 1
# bl_y = 0
# bl_r = 0
# profile = 0
# read_out = 1
# UVM_INFO E:/UVM/APB_register_file/explicit/tb//apb_rf_scb.svh(15) @ 945: uvm_test_top.rf_env_h.rf_scb [apb_rf_scb] data rcvd from mon_port, wr_enb =0, addr =0, din =1, dout =1
# UVM_INFO E:/UVM/APB_register_file/explicit/tb//apb_rf_scb.svh(41) @ 945: uvm_test_top.rf_env_h.rf_scb [PASSED] ==== TEST IS PASSED ====
# UVM_INFO E:/UVM/APB_register_file/explicit/tb//apb_rf_scb.svh(64) @ 945: uvm_test_top.rf_env_h.rf_scb [apb_rf_scb] output data is 1
# UVM_INFO E:/UVM/APB_register_file/explicit/tb/seq_lib//reg_seq_write_ctl.svh(21) @ 970: uvm_test_top.rf_env_h.rf_agent_h.rf_sqr@@seq_2 [After Write ctl reg] ctl_reg = 1
# en = 1
# bl_y = 0
# bl_r = 0
# profile = 0
# 
# UVM_INFO E:/UVM/APB_register_file/explicit/tb//apb_rf_scb.svh(15) @ 985: uvm_test_top.rf_env_h.rf_scb [apb_rf_scb] data rcvd from mon_port, wr_enb =1, addr =0, din =0, dout =0
# UVM_INFO E:/UVM/APB_register_file/explicit/tb//apb_rf_scb.svh(21) @ 985: uvm_test_top.rf_env_h.rf_scb [apb_rf_scb] input data is stored in ctl 0
# UVM_INFO E:/UVM/APB_register_file/explicit/tb/seq_lib//reg_seq_read_ctl.svh(20) @ 1010: uvm_test_top.rf_env_h.rf_agent_h.rf_sqr@@seq_3 [After read ctl reg] ctl_reg = 0
# en = 0
# bl_y = 0
# bl_r = 0
# profile = 0
# read_out = 0
# UVM_INFO E:/UVM/APB_register_file/explicit/tb/seq_lib//reg_seq_write_read_ctl.svh(19) @ 1010: uvm_test_top.rf_env_h.rf_agent_h.rf_sqr@@seq_1 [Initial ctl reg] ctl_reg = 0
# en = 0
# bl_y = 0
# bl_r = 0
# profile = 0
# 
# UVM_INFO E:/UVM/APB_register_file/explicit/tb//apb_rf_scb.svh(15) @ 1025: uvm_test_top.rf_env_h.rf_scb [apb_rf_scb] data rcvd from mon_port, wr_enb =0, addr =0, din =0, dout =0
# UVM_INFO E:/UVM/APB_register_file/explicit/tb//apb_rf_scb.svh(41) @ 1025: uvm_test_top.rf_env_h.rf_scb [PASSED] ==== TEST IS PASSED ====
# UVM_INFO E:/UVM/APB_register_file/explicit/tb//apb_rf_scb.svh(64) @ 1025: uvm_test_top.rf_env_h.rf_scb [apb_rf_scb] output data is 0
# UVM_INFO E:/UVM/APB_register_file/explicit/tb/seq_lib//reg_seq_write_read_ctl.svh(28) @ 1050: uvm_test_top.rf_env_h.rf_agent_h.rf_sqr@@seq_1 [After Write ctl reg] ctl_reg = 0
# en = 0
# bl_y = 0
# bl_r = 0
# profile = 0
# 
# UVM_INFO E:/UVM/APB_register_file/explicit/tb//apb_rf_scb.svh(15) @ 1065: uvm_test_top.rf_env_h.rf_scb [apb_rf_scb] data rcvd from mon_port, wr_enb =1, addr =0, din =f, dout =0
# UVM_INFO E:/UVM/APB_register_file/explicit/tb//apb_rf_scb.svh(21) @ 1065: uvm_test_top.rf_env_h.rf_scb [apb_rf_scb] input data is stored in ctl f
# UVM_INFO E:/UVM/APB_register_file/explicit/tb/seq_lib//reg_seq_write_read_ctl.svh(36) @ 1090: uvm_test_top.rf_env_h.rf_agent_h.rf_sqr@@seq_1 [After read ctl reg] ctl_reg = f
# en = 1
# bl_y = 1
# bl_r = 1
# profile = 1
# read_out = f
# UVM_INFO E:/UVM/APB_register_file/explicit/tb//apb_rf_scb.svh(15) @ 1105: uvm_test_top.rf_env_h.rf_scb [apb_rf_scb] data rcvd from mon_port, wr_enb =0, addr =0, din =f, dout =f
# UVM_INFO E:/UVM/APB_register_file/explicit/tb//apb_rf_scb.svh(41) @ 1105: uvm_test_top.rf_env_h.rf_scb [PASSED] ==== TEST IS PASSED ====
# UVM_INFO E:/UVM/APB_register_file/explicit/tb//apb_rf_scb.svh(64) @ 1105: uvm_test_top.rf_env_h.rf_scb [apb_rf_scb] output data is f
# UVM_INFO E:/UVM/APB_register_file/explicit/tb/seq_lib//reg_seq_write_ctl.svh(21) @ 1130: uvm_test_top.rf_env_h.rf_agent_h.rf_sqr@@seq_2 [After Write ctl reg] ctl_reg = f
# en = 1
# bl_y = 1
# bl_r = 1
# profile = 1
# 
# UVM_INFO E:/UVM/APB_register_file/explicit/tb//apb_rf_scb.svh(15) @ 1145: uvm_test_top.rf_env_h.rf_scb [apb_rf_scb] data rcvd from mon_port, wr_enb =1, addr =0, din =a, dout =0
# UVM_INFO E:/UVM/APB_register_file/explicit/tb//apb_rf_scb.svh(21) @ 1145: uvm_test_top.rf_env_h.rf_scb [apb_rf_scb] input data is stored in ctl a
# UVM_INFO E:/UVM/APB_register_file/explicit/tb/seq_lib//reg_seq_read_ctl.svh(20) @ 1170: uvm_test_top.rf_env_h.rf_agent_h.rf_sqr@@seq_3 [After read ctl reg] ctl_reg = a
# en = 0
# bl_y = 1
# bl_r = 0
# profile = 1
# read_out = a
# UVM_INFO E:/UVM/APB_register_file/explicit/tb/seq_lib//reg_seq_write_read_ctl.svh(19) @ 1170: uvm_test_top.rf_env_h.rf_agent_h.rf_sqr@@seq_1 [Initial ctl reg] ctl_reg = 0
# en = 0
# bl_y = 0
# bl_r = 0
# profile = 0
# 
# UVM_INFO E:/UVM/APB_register_file/explicit/tb//apb_rf_scb.svh(15) @ 1185: uvm_test_top.rf_env_h.rf_scb [apb_rf_scb] data rcvd from mon_port, wr_enb =0, addr =0, din =a, dout =a
# UVM_INFO E:/UVM/APB_register_file/explicit/tb//apb_rf_scb.svh(41) @ 1185: uvm_test_top.rf_env_h.rf_scb [PASSED] ==== TEST IS PASSED ====
# UVM_INFO E:/UVM/APB_register_file/explicit/tb//apb_rf_scb.svh(64) @ 1185: uvm_test_top.rf_env_h.rf_scb [apb_rf_scb] output data is a
# UVM_INFO E:/UVM/APB_register_file/explicit/tb/seq_lib//reg_seq_write_read_ctl.svh(28) @ 1210: uvm_test_top.rf_env_h.rf_agent_h.rf_sqr@@seq_1 [After Write ctl reg] ctl_reg = a
# en = 0
# bl_y = 1
# bl_r = 0
# profile = 1
# 
# UVM_INFO E:/UVM/APB_register_file/explicit/tb//apb_rf_scb.svh(15) @ 1225: uvm_test_top.rf_env_h.rf_scb [apb_rf_scb] data rcvd from mon_port, wr_enb =1, addr =0, din =5, dout =0
# UVM_INFO E:/UVM/APB_register_file/explicit/tb//apb_rf_scb.svh(21) @ 1225: uvm_test_top.rf_env_h.rf_scb [apb_rf_scb] input data is stored in ctl 5
# UVM_INFO E:/UVM/APB_register_file/explicit/tb/seq_lib//reg_seq_write_read_ctl.svh(36) @ 1250: uvm_test_top.rf_env_h.rf_agent_h.rf_sqr@@seq_1 [After read ctl reg] ctl_reg = 5
# en = 1
# bl_y = 0
# bl_r = 1
# profile = 0
# read_out = 5
# UVM_INFO E:/UVM/APB_register_file/explicit/tb//apb_rf_scb.svh(15) @ 1265: uvm_test_top.rf_env_h.rf_scb [apb_rf_scb] data rcvd from mon_port, wr_enb =0, addr =0, din =5, dout =5
# UVM_INFO E:/UVM/APB_register_file/explicit/tb//apb_rf_scb.svh(41) @ 1265: uvm_test_top.rf_env_h.rf_scb [PASSED] ==== TEST IS PASSED ====
# UVM_INFO E:/UVM/APB_register_file/explicit/tb//apb_rf_scb.svh(64) @ 1265: uvm_test_top.rf_env_h.rf_scb [apb_rf_scb] output data is 5
# UVM_INFO E:/UVM/APB_register_file/explicit/tb/seq_lib//reg_seq_write_ctl.svh(21) @ 1290: uvm_test_top.rf_env_h.rf_agent_h.rf_sqr@@seq_2 [After Write ctl reg] ctl_reg = 5
# en = 1
# bl_y = 0
# bl_r = 1
# profile = 0
# 
# UVM_INFO E:/UVM/APB_register_file/explicit/tb//apb_rf_scb.svh(15) @ 1305: uvm_test_top.rf_env_h.rf_scb [apb_rf_scb] data rcvd from mon_port, wr_enb =1, addr =0, din =1, dout =0
# UVM_INFO E:/UVM/APB_register_file/explicit/tb//apb_rf_scb.svh(21) @ 1305: uvm_test_top.rf_env_h.rf_scb [apb_rf_scb] input data is stored in ctl 1
# UVM_INFO E:/UVM/APB_register_file/explicit/tb/seq_lib//reg_seq_read_ctl.svh(20) @ 1330: uvm_test_top.rf_env_h.rf_agent_h.rf_sqr@@seq_3 [After read ctl reg] ctl_reg = 1
# en = 1
# bl_y = 0
# bl_r = 0
# profile = 0
# read_out = 1
# UVM_INFO E:/UVM/APB_register_file/explicit/tb/seq_lib//reg_seq_write_read_ctl.svh(19) @ 1330: uvm_test_top.rf_env_h.rf_agent_h.rf_sqr@@seq_1 [Initial ctl reg] ctl_reg = 0
# en = 0
# bl_y = 0
# bl_r = 0
# profile = 0
# 
# UVM_INFO E:/UVM/APB_register_file/explicit/tb//apb_rf_scb.svh(15) @ 1345: uvm_test_top.rf_env_h.rf_scb [apb_rf_scb] data rcvd from mon_port, wr_enb =0, addr =0, din =1, dout =1
# UVM_INFO E:/UVM/APB_register_file/explicit/tb//apb_rf_scb.svh(41) @ 1345: uvm_test_top.rf_env_h.rf_scb [PASSED] ==== TEST IS PASSED ====
# UVM_INFO E:/UVM/APB_register_file/explicit/tb//apb_rf_scb.svh(64) @ 1345: uvm_test_top.rf_env_h.rf_scb [apb_rf_scb] output data is 1
# UVM_INFO E:/UVM/APB_register_file/explicit/tb/seq_lib//reg_seq_write_read_ctl.svh(28) @ 1370: uvm_test_top.rf_env_h.rf_agent_h.rf_sqr@@seq_1 [After Write ctl reg] ctl_reg = 1
# en = 1
# bl_y = 0
# bl_r = 0
# profile = 0
# 
# UVM_INFO E:/UVM/APB_register_file/explicit/tb//apb_rf_scb.svh(15) @ 1385: uvm_test_top.rf_env_h.rf_scb [apb_rf_scb] data rcvd from mon_port, wr_enb =1, addr =0, din =1e, dout =0
# UVM_INFO E:/UVM/APB_register_file/explicit/tb//apb_rf_scb.svh(21) @ 1385: uvm_test_top.rf_env_h.rf_scb [apb_rf_scb] input data is stored in ctl 1e
# UVM_INFO E:/UVM/APB_register_file/explicit/tb/seq_lib//reg_seq_write_read_ctl.svh(36) @ 1410: uvm_test_top.rf_env_h.rf_agent_h.rf_sqr@@seq_1 [After read ctl reg] ctl_reg = e
# en = 0
# bl_y = 1
# bl_r = 1
# profile = 1
# read_out = e
# UVM_INFO E:/UVM/APB_register_file/explicit/tb//apb_rf_scb.svh(15) @ 1425: uvm_test_top.rf_env_h.rf_scb [apb_rf_scb] data rcvd from mon_port, wr_enb =0, addr =0, din =1e, dout =e
# UVM_INFO E:/UVM/APB_register_file/explicit/tb//apb_rf_scb.svh(41) @ 1425: uvm_test_top.rf_env_h.rf_scb [PASSED] ==== TEST IS PASSED ====
# UVM_INFO E:/UVM/APB_register_file/explicit/tb//apb_rf_scb.svh(64) @ 1425: uvm_test_top.rf_env_h.rf_scb [apb_rf_scb] output data is e
# UVM_INFO E:/UVM/APB_register_file/explicit/tb/seq_lib//reg_seq_write_ctl.svh(21) @ 1450: uvm_test_top.rf_env_h.rf_agent_h.rf_sqr@@seq_2 [After Write ctl reg] ctl_reg = e
# en = 0
# bl_y = 1
# bl_r = 1
# profile = 1
# 
# UVM_INFO E:/UVM/APB_register_file/explicit/tb//apb_rf_scb.svh(15) @ 1465: uvm_test_top.rf_env_h.rf_scb [apb_rf_scb] data rcvd from mon_port, wr_enb =1, addr =0, din =8, dout =0
# UVM_INFO E:/UVM/APB_register_file/explicit/tb//apb_rf_scb.svh(21) @ 1465: uvm_test_top.rf_env_h.rf_scb [apb_rf_scb] input data is stored in ctl 8
# UVM_INFO E:/UVM/APB_register_file/explicit/tb/seq_lib//reg_seq_read_ctl.svh(20) @ 1490: uvm_test_top.rf_env_h.rf_agent_h.rf_sqr@@seq_3 [After read ctl reg] ctl_reg = 8
# en = 0
# bl_y = 0
# bl_r = 0
# profile = 1
# read_out = 8
# UVM_INFO E:/UVM/APB_register_file/explicit/tb/seq_lib//reg_seq_write_read_ctl.svh(19) @ 1490: uvm_test_top.rf_env_h.rf_agent_h.rf_sqr@@seq_1 [Initial ctl reg] ctl_reg = 0
# en = 0
# bl_y = 0
# bl_r = 0
# profile = 0
# 
# UVM_INFO E:/UVM/APB_register_file/explicit/tb//apb_rf_scb.svh(15) @ 1505: uvm_test_top.rf_env_h.rf_scb [apb_rf_scb] data rcvd from mon_port, wr_enb =0, addr =0, din =8, dout =8
# UVM_INFO E:/UVM/APB_register_file/explicit/tb//apb_rf_scb.svh(41) @ 1505: uvm_test_top.rf_env_h.rf_scb [PASSED] ==== TEST IS PASSED ====
# UVM_INFO E:/UVM/APB_register_file/explicit/tb//apb_rf_scb.svh(64) @ 1505: uvm_test_top.rf_env_h.rf_scb [apb_rf_scb] output data is 8
# UVM_INFO E:/UVM/APB_register_file/explicit/tb/seq_lib//reg_seq_write_read_ctl.svh(28) @ 1530: uvm_test_top.rf_env_h.rf_agent_h.rf_sqr@@seq_1 [After Write ctl reg] ctl_reg = 8
# en = 0
# bl_y = 0
# bl_r = 0
# profile = 1
# 
# UVM_INFO E:/UVM/APB_register_file/explicit/tb//apb_rf_scb.svh(15) @ 1545: uvm_test_top.rf_env_h.rf_scb [apb_rf_scb] data rcvd from mon_port, wr_enb =1, addr =0, din =12, dout =0
# UVM_INFO E:/UVM/APB_register_file/explicit/tb//apb_rf_scb.svh(21) @ 1545: uvm_test_top.rf_env_h.rf_scb [apb_rf_scb] input data is stored in ctl 12
# UVM_INFO E:/UVM/APB_register_file/explicit/tb/seq_lib//reg_seq_write_read_ctl.svh(36) @ 1570: uvm_test_top.rf_env_h.rf_agent_h.rf_sqr@@seq_1 [After read ctl reg] ctl_reg = 2
# en = 0
# bl_y = 1
# bl_r = 0
# profile = 0
# read_out = 2
# UVM_INFO E:/UVM/APB_register_file/explicit/tb//apb_rf_scb.svh(15) @ 1585: uvm_test_top.rf_env_h.rf_scb [apb_rf_scb] data rcvd from mon_port, wr_enb =0, addr =0, din =12, dout =2
# UVM_INFO E:/UVM/APB_register_file/explicit/tb//apb_rf_scb.svh(41) @ 1585: uvm_test_top.rf_env_h.rf_scb [PASSED] ==== TEST IS PASSED ====
# UVM_INFO E:/UVM/APB_register_file/explicit/tb//apb_rf_scb.svh(64) @ 1585: uvm_test_top.rf_env_h.rf_scb [apb_rf_scb] output data is 2
# UVM_INFO E:/UVM/APB_register_file/explicit/tb/seq_lib//reg_seq_write_ctl.svh(21) @ 1610: uvm_test_top.rf_env_h.rf_agent_h.rf_sqr@@seq_2 [After Write ctl reg] ctl_reg = 2
# en = 0
# bl_y = 1
# bl_r = 0
# profile = 0
# 
# UVM_INFO E:/UVM/APB_register_file/explicit/tb//apb_rf_scb.svh(15) @ 1625: uvm_test_top.rf_env_h.rf_scb [apb_rf_scb] data rcvd from mon_port, wr_enb =1, addr =0, din =d, dout =0
# UVM_INFO E:/UVM/APB_register_file/explicit/tb//apb_rf_scb.svh(21) @ 1625: uvm_test_top.rf_env_h.rf_scb [apb_rf_scb] input data is stored in ctl d
# UVM_INFO E:/UVM/APB_register_file/explicit/tb/seq_lib//reg_seq_read_ctl.svh(20) @ 1650: uvm_test_top.rf_env_h.rf_agent_h.rf_sqr@@seq_3 [After read ctl reg] ctl_reg = d
# en = 1
# bl_y = 0
# bl_r = 1
# profile = 1
# read_out = d
# UVM_INFO E:/UVM/APB_register_file/explicit/tb/seq_lib//reg_seq_write_read_ctl.svh(19) @ 1650: uvm_test_top.rf_env_h.rf_agent_h.rf_sqr@@seq_1 [Initial ctl reg] ctl_reg = 0
# en = 0
# bl_y = 0
# bl_r = 0
# profile = 0
# 
# UVM_INFO E:/UVM/APB_register_file/explicit/tb//apb_rf_scb.svh(15) @ 1665: uvm_test_top.rf_env_h.rf_scb [apb_rf_scb] data rcvd from mon_port, wr_enb =0, addr =0, din =d, dout =d
# UVM_INFO E:/UVM/APB_register_file/explicit/tb//apb_rf_scb.svh(41) @ 1665: uvm_test_top.rf_env_h.rf_scb [PASSED] ==== TEST IS PASSED ====
# UVM_INFO E:/UVM/APB_register_file/explicit/tb//apb_rf_scb.svh(64) @ 1665: uvm_test_top.rf_env_h.rf_scb [apb_rf_scb] output data is d
# UVM_INFO E:/UVM/APB_register_file/explicit/tb/seq_lib//reg_seq_write_read_ctl.svh(28) @ 1690: uvm_test_top.rf_env_h.rf_agent_h.rf_sqr@@seq_1 [After Write ctl reg] ctl_reg = d
# en = 1
# bl_y = 0
# bl_r = 1
# profile = 1
# 
# UVM_INFO E:/UVM/APB_register_file/explicit/tb//apb_rf_scb.svh(15) @ 1705: uvm_test_top.rf_env_h.rf_scb [apb_rf_scb] data rcvd from mon_port, wr_enb =1, addr =0, din =10, dout =0
# UVM_INFO E:/UVM/APB_register_file/explicit/tb//apb_rf_scb.svh(21) @ 1705: uvm_test_top.rf_env_h.rf_scb [apb_rf_scb] input data is stored in ctl 10
# UVM_INFO E:/UVM/APB_register_file/explicit/tb/seq_lib//reg_seq_write_read_ctl.svh(36) @ 1730: uvm_test_top.rf_env_h.rf_agent_h.rf_sqr@@seq_1 [After read ctl reg] ctl_reg = 0
# en = 0
# bl_y = 0
# bl_r = 0
# profile = 0
# read_out = 0
# UVM_INFO E:/UVM/APB_register_file/explicit/tb//apb_rf_scb.svh(15) @ 1745: uvm_test_top.rf_env_h.rf_scb [apb_rf_scb] data rcvd from mon_port, wr_enb =0, addr =0, din =10, dout =0
# UVM_INFO E:/UVM/APB_register_file/explicit/tb//apb_rf_scb.svh(41) @ 1745: uvm_test_top.rf_env_h.rf_scb [PASSED] ==== TEST IS PASSED ====
# UVM_INFO E:/UVM/APB_register_file/explicit/tb//apb_rf_scb.svh(64) @ 1745: uvm_test_top.rf_env_h.rf_scb [apb_rf_scb] output data is 0
# UVM_INFO E:/UVM/APB_register_file/explicit/tb/seq_lib//reg_seq_write_ctl.svh(21) @ 1770: uvm_test_top.rf_env_h.rf_agent_h.rf_sqr@@seq_2 [After Write ctl reg] ctl_reg = 0
# en = 0
# bl_y = 0
# bl_r = 0
# profile = 0
# 
# UVM_INFO E:/UVM/APB_register_file/explicit/tb//apb_rf_scb.svh(15) @ 1785: uvm_test_top.rf_env_h.rf_scb [apb_rf_scb] data rcvd from mon_port, wr_enb =1, addr =0, din =1, dout =0
# UVM_INFO E:/UVM/APB_register_file/explicit/tb//apb_rf_scb.svh(21) @ 1785: uvm_test_top.rf_env_h.rf_scb [apb_rf_scb] input data is stored in ctl 1
# UVM_INFO E:/UVM/APB_register_file/explicit/tb/seq_lib//reg_seq_read_ctl.svh(20) @ 1810: uvm_test_top.rf_env_h.rf_agent_h.rf_sqr@@seq_3 [After read ctl reg] ctl_reg = 1
# en = 1
# bl_y = 0
# bl_r = 0
# profile = 0
# read_out = 1
# UVM_INFO E:/UVM/APB_register_file/explicit/tb/seq_lib//reg_seq_write_read_ctl.svh(19) @ 1810: uvm_test_top.rf_env_h.rf_agent_h.rf_sqr@@seq_1 [Initial ctl reg] ctl_reg = 0
# en = 0
# bl_y = 0
# bl_r = 0
# profile = 0
# 
# UVM_INFO E:/UVM/APB_register_file/explicit/tb//apb_rf_scb.svh(15) @ 1825: uvm_test_top.rf_env_h.rf_scb [apb_rf_scb] data rcvd from mon_port, wr_enb =0, addr =0, din =1, dout =1
# UVM_INFO E:/UVM/APB_register_file/explicit/tb//apb_rf_scb.svh(41) @ 1825: uvm_test_top.rf_env_h.rf_scb [PASSED] ==== TEST IS PASSED ====
# UVM_INFO E:/UVM/APB_register_file/explicit/tb//apb_rf_scb.svh(64) @ 1825: uvm_test_top.rf_env_h.rf_scb [apb_rf_scb] output data is 1
# UVM_INFO E:/UVM/APB_register_file/explicit/tb/seq_lib//reg_seq_write_read_ctl.svh(28) @ 1850: uvm_test_top.rf_env_h.rf_agent_h.rf_sqr@@seq_1 [After Write ctl reg] ctl_reg = 1
# en = 1
# bl_y = 0
# bl_r = 0
# profile = 0
# 
# UVM_INFO E:/UVM/APB_register_file/explicit/tb//apb_rf_scb.svh(15) @ 1865: uvm_test_top.rf_env_h.rf_scb [apb_rf_scb] data rcvd from mon_port, wr_enb =1, addr =0, din =6, dout =0
# UVM_INFO E:/UVM/APB_register_file/explicit/tb//apb_rf_scb.svh(21) @ 1865: uvm_test_top.rf_env_h.rf_scb [apb_rf_scb] input data is stored in ctl 6
# UVM_INFO E:/UVM/APB_register_file/explicit/tb/seq_lib//reg_seq_write_read_ctl.svh(36) @ 1890: uvm_test_top.rf_env_h.rf_agent_h.rf_sqr@@seq_1 [After read ctl reg] ctl_reg = 6
# en = 0
# bl_y = 1
# bl_r = 1
# profile = 0
# read_out = 6
# UVM_INFO E:/UVM/APB_register_file/explicit/tb//apb_rf_scb.svh(15) @ 1905: uvm_test_top.rf_env_h.rf_scb [apb_rf_scb] data rcvd from mon_port, wr_enb =0, addr =0, din =6, dout =6
# UVM_INFO E:/UVM/APB_register_file/explicit/tb//apb_rf_scb.svh(41) @ 1905: uvm_test_top.rf_env_h.rf_scb [PASSED] ==== TEST IS PASSED ====
# UVM_INFO E:/UVM/APB_register_file/explicit/tb//apb_rf_scb.svh(64) @ 1905: uvm_test_top.rf_env_h.rf_scb [apb_rf_scb] output data is 6
# UVM_INFO E:/UVM/APB_register_file/explicit/tb/seq_lib//reg_seq_write_ctl.svh(21) @ 1930: uvm_test_top.rf_env_h.rf_agent_h.rf_sqr@@seq_2 [After Write ctl reg] ctl_reg = 6
# en = 0
# bl_y = 1
# bl_r = 1
# profile = 0
# 
# UVM_INFO E:/UVM/APB_register_file/explicit/tb//apb_rf_scb.svh(15) @ 1945: uvm_test_top.rf_env_h.rf_scb [apb_rf_scb] data rcvd from mon_port, wr_enb =1, addr =0, din =3, dout =0
# UVM_INFO E:/UVM/APB_register_file/explicit/tb//apb_rf_scb.svh(21) @ 1945: uvm_test_top.rf_env_h.rf_scb [apb_rf_scb] input data is stored in ctl 3
# UVM_INFO E:/UVM/APB_register_file/explicit/tb/seq_lib//reg_seq_read_ctl.svh(20) @ 1970: uvm_test_top.rf_env_h.rf_agent_h.rf_sqr@@seq_3 [After read ctl reg] ctl_reg = 3
# en = 1
# bl_y = 1
# bl_r = 0
# profile = 0
# read_out = 3
# UVM_INFO E:/UVM/APB_register_file/explicit/tb/seq_lib//reg_seq_write_read_ctl.svh(19) @ 1970: uvm_test_top.rf_env_h.rf_agent_h.rf_sqr@@seq_1 [Initial ctl reg] ctl_reg = 0
# en = 0
# bl_y = 0
# bl_r = 0
# profile = 0
# 
# UVM_INFO E:/UVM/APB_register_file/explicit/tb//apb_rf_scb.svh(15) @ 1985: uvm_test_top.rf_env_h.rf_scb [apb_rf_scb] data rcvd from mon_port, wr_enb =0, addr =0, din =3, dout =3
# UVM_INFO E:/UVM/APB_register_file/explicit/tb//apb_rf_scb.svh(41) @ 1985: uvm_test_top.rf_env_h.rf_scb [PASSED] ==== TEST IS PASSED ====
# UVM_INFO E:/UVM/APB_register_file/explicit/tb//apb_rf_scb.svh(64) @ 1985: uvm_test_top.rf_env_h.rf_scb [apb_rf_scb] output data is 3
# UVM_INFO E:/UVM/APB_register_file/explicit/tb/seq_lib//reg_seq_write_read_ctl.svh(28) @ 2010: uvm_test_top.rf_env_h.rf_agent_h.rf_sqr@@seq_1 [After Write ctl reg] ctl_reg = 3
# en = 1
# bl_y = 1
# bl_r = 0
# profile = 0
# 
# UVM_INFO E:/UVM/APB_register_file/explicit/tb//apb_rf_scb.svh(15) @ 2025: uvm_test_top.rf_env_h.rf_scb [apb_rf_scb] data rcvd from mon_port, wr_enb =1, addr =0, din =d, dout =0
# UVM_INFO E:/UVM/APB_register_file/explicit/tb//apb_rf_scb.svh(21) @ 2025: uvm_test_top.rf_env_h.rf_scb [apb_rf_scb] input data is stored in ctl d
# UVM_INFO E:/UVM/APB_register_file/explicit/tb/seq_lib//reg_seq_write_read_ctl.svh(36) @ 2050: uvm_test_top.rf_env_h.rf_agent_h.rf_sqr@@seq_1 [After read ctl reg] ctl_reg = d
# en = 1
# bl_y = 0
# bl_r = 1
# profile = 1
# read_out = d
# UVM_INFO E:/UVM/APB_register_file/explicit/tb//apb_rf_scb.svh(15) @ 2065: uvm_test_top.rf_env_h.rf_scb [apb_rf_scb] data rcvd from mon_port, wr_enb =0, addr =0, din =d, dout =d
# UVM_INFO E:/UVM/APB_register_file/explicit/tb//apb_rf_scb.svh(41) @ 2065: uvm_test_top.rf_env_h.rf_scb [PASSED] ==== TEST IS PASSED ====
# UVM_INFO E:/UVM/APB_register_file/explicit/tb//apb_rf_scb.svh(64) @ 2065: uvm_test_top.rf_env_h.rf_scb [apb_rf_scb] output data is d
# UVM_INFO E:/UVM/APB_register_file/explicit/tb/seq_lib//reg_seq_write_ctl.svh(21) @ 2090: uvm_test_top.rf_env_h.rf_agent_h.rf_sqr@@seq_2 [After Write ctl reg] ctl_reg = d
# en = 1
# bl_y = 0
# bl_r = 1
# profile = 1
# 
# UVM_INFO E:/UVM/APB_register_file/explicit/tb//apb_rf_scb.svh(15) @ 2105: uvm_test_top.rf_env_h.rf_scb [apb_rf_scb] data rcvd from mon_port, wr_enb =1, addr =0, din =6, dout =0
# UVM_INFO E:/UVM/APB_register_file/explicit/tb//apb_rf_scb.svh(21) @ 2105: uvm_test_top.rf_env_h.rf_scb [apb_rf_scb] input data is stored in ctl 6
# UVM_INFO E:/UVM/APB_register_file/explicit/tb/seq_lib//reg_seq_read_ctl.svh(20) @ 2130: uvm_test_top.rf_env_h.rf_agent_h.rf_sqr@@seq_3 [After read ctl reg] ctl_reg = 6
# en = 0
# bl_y = 1
# bl_r = 1
# profile = 0
# read_out = 6
# UVM_INFO E:/UVM/APB_register_file/explicit/tb/seq_lib//reg_seq_write_read_ctl.svh(19) @ 2130: uvm_test_top.rf_env_h.rf_agent_h.rf_sqr@@seq_1 [Initial ctl reg] ctl_reg = 0
# en = 0
# bl_y = 0
# bl_r = 0
# profile = 0
# 
# UVM_INFO E:/UVM/APB_register_file/explicit/tb//apb_rf_scb.svh(15) @ 2145: uvm_test_top.rf_env_h.rf_scb [apb_rf_scb] data rcvd from mon_port, wr_enb =0, addr =0, din =6, dout =6
# UVM_INFO E:/UVM/APB_register_file/explicit/tb//apb_rf_scb.svh(41) @ 2145: uvm_test_top.rf_env_h.rf_scb [PASSED] ==== TEST IS PASSED ====
# UVM_INFO E:/UVM/APB_register_file/explicit/tb//apb_rf_scb.svh(64) @ 2145: uvm_test_top.rf_env_h.rf_scb [apb_rf_scb] output data is 6
# UVM_INFO E:/UVM/APB_register_file/explicit/tb/seq_lib//reg_seq_write_read_ctl.svh(28) @ 2170: uvm_test_top.rf_env_h.rf_agent_h.rf_sqr@@seq_1 [After Write ctl reg] ctl_reg = 6
# en = 0
# bl_y = 1
# bl_r = 1
# profile = 0
# 
# UVM_INFO E:/UVM/APB_register_file/explicit/tb//apb_rf_scb.svh(15) @ 2185: uvm_test_top.rf_env_h.rf_scb [apb_rf_scb] data rcvd from mon_port, wr_enb =1, addr =0, din =7, dout =0
# UVM_INFO E:/UVM/APB_register_file/explicit/tb//apb_rf_scb.svh(21) @ 2185: uvm_test_top.rf_env_h.rf_scb [apb_rf_scb] input data is stored in ctl 7
# UVM_INFO E:/UVM/APB_register_file/explicit/tb/seq_lib//reg_seq_write_read_ctl.svh(36) @ 2210: uvm_test_top.rf_env_h.rf_agent_h.rf_sqr@@seq_1 [After read ctl reg] ctl_reg = 7
# en = 1
# bl_y = 1
# bl_r = 1
# profile = 0
# read_out = 7
# UVM_INFO E:/UVM/APB_register_file/explicit/tb//apb_rf_scb.svh(15) @ 2225: uvm_test_top.rf_env_h.rf_scb [apb_rf_scb] data rcvd from mon_port, wr_enb =0, addr =0, din =7, dout =7
# UVM_INFO E:/UVM/APB_register_file/explicit/tb//apb_rf_scb.svh(41) @ 2225: uvm_test_top.rf_env_h.rf_scb [PASSED] ==== TEST IS PASSED ====
# UVM_INFO E:/UVM/APB_register_file/explicit/tb//apb_rf_scb.svh(64) @ 2225: uvm_test_top.rf_env_h.rf_scb [apb_rf_scb] output data is 7
# UVM_INFO E:/UVM/APB_register_file/explicit/tb/seq_lib//reg_seq_write_ctl.svh(21) @ 2250: uvm_test_top.rf_env_h.rf_agent_h.rf_sqr@@seq_2 [After Write ctl reg] ctl_reg = 7
# en = 1
# bl_y = 1
# bl_r = 1
# profile = 0
# 
# UVM_INFO E:/UVM/APB_register_file/explicit/tb//apb_rf_scb.svh(15) @ 2265: uvm_test_top.rf_env_h.rf_scb [apb_rf_scb] data rcvd from mon_port, wr_enb =1, addr =0, din =4, dout =0
# UVM_INFO E:/UVM/APB_register_file/explicit/tb//apb_rf_scb.svh(21) @ 2265: uvm_test_top.rf_env_h.rf_scb [apb_rf_scb] input data is stored in ctl 4
# UVM_INFO E:/UVM/APB_register_file/explicit/tb/seq_lib//reg_seq_read_ctl.svh(20) @ 2290: uvm_test_top.rf_env_h.rf_agent_h.rf_sqr@@seq_3 [After read ctl reg] ctl_reg = 4
# en = 0
# bl_y = 0
# bl_r = 1
# profile = 0
# read_out = 4
# UVM_INFO E:/UVM/APB_register_file/explicit/tb/seq_lib//reg_seq_write_read_ctl.svh(19) @ 2290: uvm_test_top.rf_env_h.rf_agent_h.rf_sqr@@seq_1 [Initial ctl reg] ctl_reg = 0
# en = 0
# bl_y = 0
# bl_r = 0
# profile = 0
# 
# UVM_INFO E:/UVM/APB_register_file/explicit/tb//apb_rf_scb.svh(15) @ 2305: uvm_test_top.rf_env_h.rf_scb [apb_rf_scb] data rcvd from mon_port, wr_enb =0, addr =0, din =4, dout =4
# UVM_INFO E:/UVM/APB_register_file/explicit/tb//apb_rf_scb.svh(41) @ 2305: uvm_test_top.rf_env_h.rf_scb [PASSED] ==== TEST IS PASSED ====
# UVM_INFO E:/UVM/APB_register_file/explicit/tb//apb_rf_scb.svh(64) @ 2305: uvm_test_top.rf_env_h.rf_scb [apb_rf_scb] output data is 4
# UVM_INFO E:/UVM/APB_register_file/explicit/tb/seq_lib//reg_seq_write_read_ctl.svh(28) @ 2330: uvm_test_top.rf_env_h.rf_agent_h.rf_sqr@@seq_1 [After Write ctl reg] ctl_reg = 4
# en = 0
# bl_y = 0
# bl_r = 1
# profile = 0
# 
# UVM_INFO E:/UVM/APB_register_file/explicit/tb//apb_rf_scb.svh(15) @ 2345: uvm_test_top.rf_env_h.rf_scb [apb_rf_scb] data rcvd from mon_port, wr_enb =1, addr =0, din =2, dout =0
# UVM_INFO E:/UVM/APB_register_file/explicit/tb//apb_rf_scb.svh(21) @ 2345: uvm_test_top.rf_env_h.rf_scb [apb_rf_scb] input data is stored in ctl 2
# UVM_INFO E:/UVM/APB_register_file/explicit/tb/seq_lib//reg_seq_write_read_ctl.svh(36) @ 2370: uvm_test_top.rf_env_h.rf_agent_h.rf_sqr@@seq_1 [After read ctl reg] ctl_reg = 2
# en = 0
# bl_y = 1
# bl_r = 0
# profile = 0
# read_out = 2
# UVM_INFO E:/UVM/APB_register_file/explicit/tb//apb_rf_scb.svh(15) @ 2385: uvm_test_top.rf_env_h.rf_scb [apb_rf_scb] data rcvd from mon_port, wr_enb =0, addr =0, din =2, dout =2
# UVM_INFO E:/UVM/APB_register_file/explicit/tb//apb_rf_scb.svh(41) @ 2385: uvm_test_top.rf_env_h.rf_scb [PASSED] ==== TEST IS PASSED ====
# UVM_INFO E:/UVM/APB_register_file/explicit/tb//apb_rf_scb.svh(64) @ 2385: uvm_test_top.rf_env_h.rf_scb [apb_rf_scb] output data is 2
# UVM_INFO E:/UVM/APB_register_file/explicit/tb/seq_lib//reg_seq_write_ctl.svh(21) @ 2410: uvm_test_top.rf_env_h.rf_agent_h.rf_sqr@@seq_2 [After Write ctl reg] ctl_reg = 2
# en = 0
# bl_y = 1
# bl_r = 0
# profile = 0
# 
# UVM_INFO E:/UVM/APB_register_file/explicit/tb//apb_rf_scb.svh(15) @ 2425: uvm_test_top.rf_env_h.rf_scb [apb_rf_scb] data rcvd from mon_port, wr_enb =1, addr =0, din =2, dout =0
# UVM_INFO E:/UVM/APB_register_file/explicit/tb//apb_rf_scb.svh(21) @ 2425: uvm_test_top.rf_env_h.rf_scb [apb_rf_scb] input data is stored in ctl 2
# UVM_INFO E:/UVM/APB_register_file/explicit/tb/seq_lib//reg_seq_read_ctl.svh(20) @ 2450: uvm_test_top.rf_env_h.rf_agent_h.rf_sqr@@seq_3 [After read ctl reg] ctl_reg = 2
# en = 0
# bl_y = 1
# bl_r = 0
# profile = 0
# read_out = 2
# UVM_INFO E:/UVM/APB_register_file/explicit/tb/seq_lib//reg_seq_write_read_ctl.svh(19) @ 2450: uvm_test_top.rf_env_h.rf_agent_h.rf_sqr@@seq_1 [Initial ctl reg] ctl_reg = 0
# en = 0
# bl_y = 0
# bl_r = 0
# profile = 0
# 
# UVM_INFO E:/UVM/APB_register_file/explicit/tb//apb_rf_scb.svh(15) @ 2465: uvm_test_top.rf_env_h.rf_scb [apb_rf_scb] data rcvd from mon_port, wr_enb =0, addr =0, din =2, dout =2
# UVM_INFO E:/UVM/APB_register_file/explicit/tb//apb_rf_scb.svh(41) @ 2465: uvm_test_top.rf_env_h.rf_scb [PASSED] ==== TEST IS PASSED ====
# UVM_INFO E:/UVM/APB_register_file/explicit/tb//apb_rf_scb.svh(64) @ 2465: uvm_test_top.rf_env_h.rf_scb [apb_rf_scb] output data is 2
# UVM_INFO E:/UVM/APB_register_file/explicit/tb/seq_lib//reg_seq_write_read_ctl.svh(28) @ 2490: uvm_test_top.rf_env_h.rf_agent_h.rf_sqr@@seq_1 [After Write ctl reg] ctl_reg = 2
# en = 0
# bl_y = 1
# bl_r = 0
# profile = 0
# 
# UVM_INFO E:/UVM/APB_register_file/explicit/tb//apb_rf_scb.svh(15) @ 2505: uvm_test_top.rf_env_h.rf_scb [apb_rf_scb] data rcvd from mon_port, wr_enb =1, addr =0, din =a, dout =0
# UVM_INFO E:/UVM/APB_register_file/explicit/tb//apb_rf_scb.svh(21) @ 2505: uvm_test_top.rf_env_h.rf_scb [apb_rf_scb] input data is stored in ctl a
# UVM_INFO E:/UVM/APB_register_file/explicit/tb/seq_lib//reg_seq_write_read_ctl.svh(36) @ 2530: uvm_test_top.rf_env_h.rf_agent_h.rf_sqr@@seq_1 [After read ctl reg] ctl_reg = a
# en = 0
# bl_y = 1
# bl_r = 0
# profile = 1
# read_out = a
# UVM_INFO E:/UVM/APB_register_file/explicit/tb//apb_rf_scb.svh(15) @ 2545: uvm_test_top.rf_env_h.rf_scb [apb_rf_scb] data rcvd from mon_port, wr_enb =0, addr =0, din =a, dout =a
# UVM_INFO E:/UVM/APB_register_file/explicit/tb//apb_rf_scb.svh(41) @ 2545: uvm_test_top.rf_env_h.rf_scb [PASSED] ==== TEST IS PASSED ====
# UVM_INFO E:/UVM/APB_register_file/explicit/tb//apb_rf_scb.svh(64) @ 2545: uvm_test_top.rf_env_h.rf_scb [apb_rf_scb] output data is a
# UVM_INFO E:/UVM/APB_register_file/explicit/tb/seq_lib//reg_seq_write_ctl.svh(21) @ 2570: uvm_test_top.rf_env_h.rf_agent_h.rf_sqr@@seq_2 [After Write ctl reg] ctl_reg = a
# en = 0
# bl_y = 1
# bl_r = 0
# profile = 1
# 
# UVM_INFO E:/UVM/APB_register_file/explicit/tb//apb_rf_scb.svh(15) @ 2585: uvm_test_top.rf_env_h.rf_scb [apb_rf_scb] data rcvd from mon_port, wr_enb =1, addr =0, din =7, dout =0
# UVM_INFO E:/UVM/APB_register_file/explicit/tb//apb_rf_scb.svh(21) @ 2585: uvm_test_top.rf_env_h.rf_scb [apb_rf_scb] input data is stored in ctl 7
# UVM_INFO E:/UVM/APB_register_file/explicit/tb/seq_lib//reg_seq_read_ctl.svh(20) @ 2610: uvm_test_top.rf_env_h.rf_agent_h.rf_sqr@@seq_3 [After read ctl reg] ctl_reg = 7
# en = 1
# bl_y = 1
# bl_r = 1
# profile = 0
# read_out = 7
# UVM_INFO E:/UVM/APB_register_file/explicit/tb/seq_lib//reg_seq_write_read_ctl.svh(19) @ 2610: uvm_test_top.rf_env_h.rf_agent_h.rf_sqr@@seq_1 [Initial ctl reg] ctl_reg = 0
# en = 0
# bl_y = 0
# bl_r = 0
# profile = 0
# 
# UVM_INFO E:/UVM/APB_register_file/explicit/tb//apb_rf_scb.svh(15) @ 2625: uvm_test_top.rf_env_h.rf_scb [apb_rf_scb] data rcvd from mon_port, wr_enb =0, addr =0, din =7, dout =7
# UVM_INFO E:/UVM/APB_register_file/explicit/tb//apb_rf_scb.svh(41) @ 2625: uvm_test_top.rf_env_h.rf_scb [PASSED] ==== TEST IS PASSED ====
# UVM_INFO E:/UVM/APB_register_file/explicit/tb//apb_rf_scb.svh(64) @ 2625: uvm_test_top.rf_env_h.rf_scb [apb_rf_scb] output data is 7
# UVM_INFO E:/UVM/APB_register_file/explicit/tb/seq_lib//reg_seq_write_read_ctl.svh(28) @ 2650: uvm_test_top.rf_env_h.rf_agent_h.rf_sqr@@seq_1 [After Write ctl reg] ctl_reg = 7
# en = 1
# bl_y = 1
# bl_r = 1
# profile = 0
# 
# UVM_INFO E:/UVM/APB_register_file/explicit/tb//apb_rf_scb.svh(15) @ 2665: uvm_test_top.rf_env_h.rf_scb [apb_rf_scb] data rcvd from mon_port, wr_enb =1, addr =0, din =3, dout =0
# UVM_INFO E:/UVM/APB_register_file/explicit/tb//apb_rf_scb.svh(21) @ 2665: uvm_test_top.rf_env_h.rf_scb [apb_rf_scb] input data is stored in ctl 3
# UVM_INFO E:/UVM/APB_register_file/explicit/tb/seq_lib//reg_seq_write_read_ctl.svh(36) @ 2690: uvm_test_top.rf_env_h.rf_agent_h.rf_sqr@@seq_1 [After read ctl reg] ctl_reg = 3
# en = 1
# bl_y = 1
# bl_r = 0
# profile = 0
# read_out = 3
# UVM_INFO E:/UVM/APB_register_file/explicit/tb//apb_rf_scb.svh(15) @ 2705: uvm_test_top.rf_env_h.rf_scb [apb_rf_scb] data rcvd from mon_port, wr_enb =0, addr =0, din =3, dout =3
# UVM_INFO E:/UVM/APB_register_file/explicit/tb//apb_rf_scb.svh(41) @ 2705: uvm_test_top.rf_env_h.rf_scb [PASSED] ==== TEST IS PASSED ====
# UVM_INFO E:/UVM/APB_register_file/explicit/tb//apb_rf_scb.svh(64) @ 2705: uvm_test_top.rf_env_h.rf_scb [apb_rf_scb] output data is 3
# UVM_INFO E:/UVM/APB_register_file/explicit/tb/seq_lib//reg_seq_write_ctl.svh(21) @ 2730: uvm_test_top.rf_env_h.rf_agent_h.rf_sqr@@seq_2 [After Write ctl reg] ctl_reg = 3
# en = 1
# bl_y = 1
# bl_r = 0
# profile = 0
# 
# UVM_INFO E:/UVM/APB_register_file/explicit/tb//apb_rf_scb.svh(15) @ 2745: uvm_test_top.rf_env_h.rf_scb [apb_rf_scb] data rcvd from mon_port, wr_enb =1, addr =0, din =3, dout =0
# UVM_INFO E:/UVM/APB_register_file/explicit/tb//apb_rf_scb.svh(21) @ 2745: uvm_test_top.rf_env_h.rf_scb [apb_rf_scb] input data is stored in ctl 3
# UVM_INFO E:/UVM/APB_register_file/explicit/tb/seq_lib//reg_seq_read_ctl.svh(20) @ 2770: uvm_test_top.rf_env_h.rf_agent_h.rf_sqr@@seq_3 [After read ctl reg] ctl_reg = 3
# en = 1
# bl_y = 1
# bl_r = 0
# profile = 0
# read_out = 3
# UVM_INFO E:/UVM/APB_register_file/explicit/tb/seq_lib//reg_seq_write_read_ctl.svh(19) @ 2770: uvm_test_top.rf_env_h.rf_agent_h.rf_sqr@@seq_1 [Initial ctl reg] ctl_reg = 0
# en = 0
# bl_y = 0
# bl_r = 0
# profile = 0
# 
# UVM_INFO E:/UVM/APB_register_file/explicit/tb//apb_rf_scb.svh(15) @ 2785: uvm_test_top.rf_env_h.rf_scb [apb_rf_scb] data rcvd from mon_port, wr_enb =0, addr =0, din =3, dout =3
# UVM_INFO E:/UVM/APB_register_file/explicit/tb//apb_rf_scb.svh(41) @ 2785: uvm_test_top.rf_env_h.rf_scb [PASSED] ==== TEST IS PASSED ====
# UVM_INFO E:/UVM/APB_register_file/explicit/tb//apb_rf_scb.svh(64) @ 2785: uvm_test_top.rf_env_h.rf_scb [apb_rf_scb] output data is 3
# UVM_INFO E:/UVM/APB_register_file/explicit/tb/seq_lib//reg_seq_write_read_ctl.svh(28) @ 2810: uvm_test_top.rf_env_h.rf_agent_h.rf_sqr@@seq_1 [After Write ctl reg] ctl_reg = 3
# en = 1
# bl_y = 1
# bl_r = 0
# profile = 0
# 
# UVM_INFO E:/UVM/APB_register_file/explicit/tb//apb_rf_scb.svh(15) @ 2825: uvm_test_top.rf_env_h.rf_scb [apb_rf_scb] data rcvd from mon_port, wr_enb =1, addr =0, din =2, dout =0
# UVM_INFO E:/UVM/APB_register_file/explicit/tb//apb_rf_scb.svh(21) @ 2825: uvm_test_top.rf_env_h.rf_scb [apb_rf_scb] input data is stored in ctl 2
# UVM_INFO E:/UVM/APB_register_file/explicit/tb/seq_lib//reg_seq_write_read_ctl.svh(36) @ 2850: uvm_test_top.rf_env_h.rf_agent_h.rf_sqr@@seq_1 [After read ctl reg] ctl_reg = 2
# en = 0
# bl_y = 1
# bl_r = 0
# profile = 0
# read_out = 2
# UVM_INFO E:/UVM/APB_register_file/explicit/tb//apb_rf_scb.svh(15) @ 2865: uvm_test_top.rf_env_h.rf_scb [apb_rf_scb] data rcvd from mon_port, wr_enb =0, addr =0, din =2, dout =2
# UVM_INFO E:/UVM/APB_register_file/explicit/tb//apb_rf_scb.svh(41) @ 2865: uvm_test_top.rf_env_h.rf_scb [PASSED] ==== TEST IS PASSED ====
# UVM_INFO E:/UVM/APB_register_file/explicit/tb//apb_rf_scb.svh(64) @ 2865: uvm_test_top.rf_env_h.rf_scb [apb_rf_scb] output data is 2
# UVM_INFO E:/UVM/APB_register_file/explicit/tb/seq_lib//reg_seq_write_ctl.svh(21) @ 2890: uvm_test_top.rf_env_h.rf_agent_h.rf_sqr@@seq_2 [After Write ctl reg] ctl_reg = 2
# en = 0
# bl_y = 1
# bl_r = 0
# profile = 0
# 
# UVM_INFO E:/UVM/APB_register_file/explicit/tb//apb_rf_scb.svh(15) @ 2905: uvm_test_top.rf_env_h.rf_scb [apb_rf_scb] data rcvd from mon_port, wr_enb =1, addr =0, din =a, dout =0
# UVM_INFO E:/UVM/APB_register_file/explicit/tb//apb_rf_scb.svh(21) @ 2905: uvm_test_top.rf_env_h.rf_scb [apb_rf_scb] input data is stored in ctl a
# UVM_INFO E:/UVM/APB_register_file/explicit/tb/seq_lib//reg_seq_read_ctl.svh(20) @ 2930: uvm_test_top.rf_env_h.rf_agent_h.rf_sqr@@seq_3 [After read ctl reg] ctl_reg = a
# en = 0
# bl_y = 1
# bl_r = 0
# profile = 1
# read_out = a
# UVM_INFO E:/UVM/APB_register_file/explicit/tb/seq_lib//reg_seq_write_read_ctl.svh(19) @ 2930: uvm_test_top.rf_env_h.rf_agent_h.rf_sqr@@seq_1 [Initial ctl reg] ctl_reg = 0
# en = 0
# bl_y = 0
# bl_r = 0
# profile = 0
# 
# UVM_INFO E:/UVM/APB_register_file/explicit/tb//apb_rf_scb.svh(15) @ 2945: uvm_test_top.rf_env_h.rf_scb [apb_rf_scb] data rcvd from mon_port, wr_enb =0, addr =0, din =a, dout =a
# UVM_INFO E:/UVM/APB_register_file/explicit/tb//apb_rf_scb.svh(41) @ 2945: uvm_test_top.rf_env_h.rf_scb [PASSED] ==== TEST IS PASSED ====
# UVM_INFO E:/UVM/APB_register_file/explicit/tb//apb_rf_scb.svh(64) @ 2945: uvm_test_top.rf_env_h.rf_scb [apb_rf_scb] output data is a
# UVM_INFO E:/UVM/APB_register_file/explicit/tb/seq_lib//reg_seq_write_read_ctl.svh(28) @ 2970: uvm_test_top.rf_env_h.rf_agent_h.rf_sqr@@seq_1 [After Write ctl reg] ctl_reg = a
# en = 0
# bl_y = 1
# bl_r = 0
# profile = 1
# 
# UVM_INFO E:/UVM/APB_register_file/explicit/tb//apb_rf_scb.svh(15) @ 2985: uvm_test_top.rf_env_h.rf_scb [apb_rf_scb] data rcvd from mon_port, wr_enb =1, addr =0, din =14, dout =0
# UVM_INFO E:/UVM/APB_register_file/explicit/tb//apb_rf_scb.svh(21) @ 2985: uvm_test_top.rf_env_h.rf_scb [apb_rf_scb] input data is stored in ctl 14
# UVM_INFO E:/UVM/APB_register_file/explicit/tb/seq_lib//reg_seq_write_read_ctl.svh(36) @ 3010: uvm_test_top.rf_env_h.rf_agent_h.rf_sqr@@seq_1 [After read ctl reg] ctl_reg = 4
# en = 0
# bl_y = 0
# bl_r = 1
# profile = 0
# read_out = 4
# UVM_INFO E:/UVM/APB_register_file/explicit/tb//apb_rf_scb.svh(15) @ 3025: uvm_test_top.rf_env_h.rf_scb [apb_rf_scb] data rcvd from mon_port, wr_enb =0, addr =0, din =14, dout =4
# UVM_INFO E:/UVM/APB_register_file/explicit/tb//apb_rf_scb.svh(41) @ 3025: uvm_test_top.rf_env_h.rf_scb [PASSED] ==== TEST IS PASSED ====
# UVM_INFO E:/UVM/APB_register_file/explicit/tb//apb_rf_scb.svh(64) @ 3025: uvm_test_top.rf_env_h.rf_scb [apb_rf_scb] output data is 4
# UVM_INFO E:/UVM/APB_register_file/explicit/tb/seq_lib//reg_seq_write_ctl.svh(21) @ 3050: uvm_test_top.rf_env_h.rf_agent_h.rf_sqr@@seq_2 [After Write ctl reg] ctl_reg = 4
# en = 0
# bl_y = 0
# bl_r = 1
# profile = 0
# 
# UVM_INFO E:/UVM/APB_register_file/explicit/tb//apb_rf_scb.svh(15) @ 3065: uvm_test_top.rf_env_h.rf_scb [apb_rf_scb] data rcvd from mon_port, wr_enb =1, addr =0, din =8, dout =0
# UVM_INFO E:/UVM/APB_register_file/explicit/tb//apb_rf_scb.svh(21) @ 3065: uvm_test_top.rf_env_h.rf_scb [apb_rf_scb] input data is stored in ctl 8
# UVM_INFO E:/UVM/APB_register_file/explicit/tb/seq_lib//reg_seq_read_ctl.svh(20) @ 3090: uvm_test_top.rf_env_h.rf_agent_h.rf_sqr@@seq_3 [After read ctl reg] ctl_reg = 8
# en = 0
# bl_y = 0
# bl_r = 0
# profile = 1
# read_out = 8
# UVM_INFO E:/UVM/APB_register_file/explicit/tb/seq_lib//reg_seq_write_read_ctl.svh(19) @ 3090: uvm_test_top.rf_env_h.rf_agent_h.rf_sqr@@seq_1 [Initial ctl reg] ctl_reg = 0
# en = 0
# bl_y = 0
# bl_r = 0
# profile = 0
# 
# UVM_INFO E:/UVM/APB_register_file/explicit/tb//apb_rf_scb.svh(15) @ 3105: uvm_test_top.rf_env_h.rf_scb [apb_rf_scb] data rcvd from mon_port, wr_enb =0, addr =0, din =8, dout =8
# UVM_INFO E:/UVM/APB_register_file/explicit/tb//apb_rf_scb.svh(41) @ 3105: uvm_test_top.rf_env_h.rf_scb [PASSED] ==== TEST IS PASSED ====
# UVM_INFO E:/UVM/APB_register_file/explicit/tb//apb_rf_scb.svh(64) @ 3105: uvm_test_top.rf_env_h.rf_scb [apb_rf_scb] output data is 8
# UVM_INFO E:/UVM/APB_register_file/explicit/tb/seq_lib//reg_seq_write_read_ctl.svh(28) @ 3130: uvm_test_top.rf_env_h.rf_agent_h.rf_sqr@@seq_1 [After Write ctl reg] ctl_reg = 8
# en = 0
# bl_y = 0
# bl_r = 0
# profile = 1
# 
# UVM_INFO E:/UVM/APB_register_file/explicit/tb//apb_rf_scb.svh(15) @ 3145: uvm_test_top.rf_env_h.rf_scb [apb_rf_scb] data rcvd from mon_port, wr_enb =1, addr =0, din =14, dout =0
# UVM_INFO E:/UVM/APB_register_file/explicit/tb//apb_rf_scb.svh(21) @ 3145: uvm_test_top.rf_env_h.rf_scb [apb_rf_scb] input data is stored in ctl 14
# UVM_INFO E:/UVM/APB_register_file/explicit/tb/seq_lib//reg_seq_write_read_ctl.svh(36) @ 3170: uvm_test_top.rf_env_h.rf_agent_h.rf_sqr@@seq_1 [After read ctl reg] ctl_reg = 4
# en = 0
# bl_y = 0
# bl_r = 1
# profile = 0
# read_out = 4
# UVM_INFO E:/UVM/APB_register_file/explicit/tb//apb_rf_scb.svh(15) @ 3185: uvm_test_top.rf_env_h.rf_scb [apb_rf_scb] data rcvd from mon_port, wr_enb =0, addr =0, din =14, dout =4
# UVM_INFO E:/UVM/APB_register_file/explicit/tb//apb_rf_scb.svh(41) @ 3185: uvm_test_top.rf_env_h.rf_scb [PASSED] ==== TEST IS PASSED ====
# UVM_INFO E:/UVM/APB_register_file/explicit/tb//apb_rf_scb.svh(64) @ 3185: uvm_test_top.rf_env_h.rf_scb [apb_rf_scb] output data is 4
# UVM_INFO E:/UVM/APB_register_file/explicit/tb/seq_lib//reg_seq_write_ctl.svh(21) @ 3210: uvm_test_top.rf_env_h.rf_agent_h.rf_sqr@@seq_2 [After Write ctl reg] ctl_reg = 4
# en = 0
# bl_y = 0
# bl_r = 1
# profile = 0
# 
# UVM_INFO E:/UVM/APB_register_file/explicit/tb//apb_rf_scb.svh(15) @ 3225: uvm_test_top.rf_env_h.rf_scb [apb_rf_scb] data rcvd from mon_port, wr_enb =1, addr =0, din =6, dout =0
# UVM_INFO E:/UVM/APB_register_file/explicit/tb//apb_rf_scb.svh(21) @ 3225: uvm_test_top.rf_env_h.rf_scb [apb_rf_scb] input data is stored in ctl 6
# UVM_INFO E:/UVM/APB_register_file/explicit/tb/seq_lib//reg_seq_read_ctl.svh(20) @ 3250: uvm_test_top.rf_env_h.rf_agent_h.rf_sqr@@seq_3 [After read ctl reg] ctl_reg = 6
# en = 0
# bl_y = 1
# bl_r = 1
# profile = 0
# read_out = 6
# UVM_INFO E:/UVM/APB_register_file/explicit/tb/seq_lib//reg_seq_write_read_ctl.svh(19) @ 3250: uvm_test_top.rf_env_h.rf_agent_h.rf_sqr@@seq_1 [Initial ctl reg] ctl_reg = 0
# en = 0
# bl_y = 0
# bl_r = 0
# profile = 0
# 
# UVM_INFO E:/UVM/APB_register_file/explicit/tb//apb_rf_scb.svh(15) @ 3265: uvm_test_top.rf_env_h.rf_scb [apb_rf_scb] data rcvd from mon_port, wr_enb =0, addr =0, din =6, dout =6
# UVM_INFO E:/UVM/APB_register_file/explicit/tb//apb_rf_scb.svh(41) @ 3265: uvm_test_top.rf_env_h.rf_scb [PASSED] ==== TEST IS PASSED ====
# UVM_INFO E:/UVM/APB_register_file/explicit/tb//apb_rf_scb.svh(64) @ 3265: uvm_test_top.rf_env_h.rf_scb [apb_rf_scb] output data is 6
# UVM_INFO E:/UVM/APB_register_file/explicit/tb/seq_lib//reg_seq_write_read_ctl.svh(28) @ 3290: uvm_test_top.rf_env_h.rf_agent_h.rf_sqr@@seq_1 [After Write ctl reg] ctl_reg = 6
# en = 0
# bl_y = 1
# bl_r = 1
# profile = 0
# 
# UVM_INFO E:/UVM/APB_register_file/explicit/tb//apb_rf_scb.svh(15) @ 3305: uvm_test_top.rf_env_h.rf_scb [apb_rf_scb] data rcvd from mon_port, wr_enb =1, addr =0, din =a, dout =0
# UVM_INFO E:/UVM/APB_register_file/explicit/tb//apb_rf_scb.svh(21) @ 3305: uvm_test_top.rf_env_h.rf_scb [apb_rf_scb] input data is stored in ctl a
# UVM_INFO E:/UVM/APB_register_file/explicit/tb/seq_lib//reg_seq_write_read_ctl.svh(36) @ 3330: uvm_test_top.rf_env_h.rf_agent_h.rf_sqr@@seq_1 [After read ctl reg] ctl_reg = a
# en = 0
# bl_y = 1
# bl_r = 0
# profile = 1
# read_out = a
# UVM_INFO E:/UVM/APB_register_file/explicit/tb//apb_rf_scb.svh(15) @ 3345: uvm_test_top.rf_env_h.rf_scb [apb_rf_scb] data rcvd from mon_port, wr_enb =0, addr =0, din =a, dout =a
# UVM_INFO E:/UVM/APB_register_file/explicit/tb//apb_rf_scb.svh(41) @ 3345: uvm_test_top.rf_env_h.rf_scb [PASSED] ==== TEST IS PASSED ====
# UVM_INFO E:/UVM/APB_register_file/explicit/tb//apb_rf_scb.svh(64) @ 3345: uvm_test_top.rf_env_h.rf_scb [apb_rf_scb] output data is a
# UVM_INFO E:/UVM/APB_register_file/explicit/tb/seq_lib//reg_seq_write_ctl.svh(21) @ 3370: uvm_test_top.rf_env_h.rf_agent_h.rf_sqr@@seq_2 [After Write ctl reg] ctl_reg = a
# en = 0
# bl_y = 1
# bl_r = 0
# profile = 1
# 
# UVM_INFO E:/UVM/APB_register_file/explicit/tb//apb_rf_scb.svh(15) @ 3385: uvm_test_top.rf_env_h.rf_scb [apb_rf_scb] data rcvd from mon_port, wr_enb =1, addr =0, din =d, dout =0
# UVM_INFO E:/UVM/APB_register_file/explicit/tb//apb_rf_scb.svh(21) @ 3385: uvm_test_top.rf_env_h.rf_scb [apb_rf_scb] input data is stored in ctl d
# UVM_INFO E:/UVM/APB_register_file/explicit/tb/seq_lib//reg_seq_read_ctl.svh(20) @ 3410: uvm_test_top.rf_env_h.rf_agent_h.rf_sqr@@seq_3 [After read ctl reg] ctl_reg = d
# en = 1
# bl_y = 0
# bl_r = 1
# profile = 1
# read_out = d
# UVM_INFO E:/UVM/APB_register_file/explicit/tb/seq_lib//reg_seq_write_read_ctl.svh(19) @ 3410: uvm_test_top.rf_env_h.rf_agent_h.rf_sqr@@seq_1 [Initial ctl reg] ctl_reg = 0
# en = 0
# bl_y = 0
# bl_r = 0
# profile = 0
# 
# UVM_INFO E:/UVM/APB_register_file/explicit/tb//apb_rf_scb.svh(15) @ 3425: uvm_test_top.rf_env_h.rf_scb [apb_rf_scb] data rcvd from mon_port, wr_enb =0, addr =0, din =d, dout =d
# UVM_INFO E:/UVM/APB_register_file/explicit/tb//apb_rf_scb.svh(41) @ 3425: uvm_test_top.rf_env_h.rf_scb [PASSED] ==== TEST IS PASSED ====
# UVM_INFO E:/UVM/APB_register_file/explicit/tb//apb_rf_scb.svh(64) @ 3425: uvm_test_top.rf_env_h.rf_scb [apb_rf_scb] output data is d
# UVM_INFO E:/UVM/APB_register_file/explicit/tb/seq_lib//reg_seq_write_read_ctl.svh(28) @ 3450: uvm_test_top.rf_env_h.rf_agent_h.rf_sqr@@seq_1 [After Write ctl reg] ctl_reg = d
# en = 1
# bl_y = 0
# bl_r = 1
# profile = 1
# 
# UVM_INFO E:/UVM/APB_register_file/explicit/tb//apb_rf_scb.svh(15) @ 3465: uvm_test_top.rf_env_h.rf_scb [apb_rf_scb] data rcvd from mon_port, wr_enb =1, addr =0, din =9, dout =0
# UVM_INFO E:/UVM/APB_register_file/explicit/tb//apb_rf_scb.svh(21) @ 3465: uvm_test_top.rf_env_h.rf_scb [apb_rf_scb] input data is stored in ctl 9
# UVM_INFO E:/UVM/APB_register_file/explicit/tb/seq_lib//reg_seq_write_read_ctl.svh(36) @ 3490: uvm_test_top.rf_env_h.rf_agent_h.rf_sqr@@seq_1 [After read ctl reg] ctl_reg = 9
# en = 1
# bl_y = 0
# bl_r = 0
# profile = 1
# read_out = 9
# UVM_INFO E:/UVM/APB_register_file/explicit/tb//apb_rf_scb.svh(15) @ 3505: uvm_test_top.rf_env_h.rf_scb [apb_rf_scb] data rcvd from mon_port, wr_enb =0, addr =0, din =9, dout =9
# UVM_INFO E:/UVM/APB_register_file/explicit/tb//apb_rf_scb.svh(41) @ 3505: uvm_test_top.rf_env_h.rf_scb [PASSED] ==== TEST IS PASSED ====
# UVM_INFO E:/UVM/APB_register_file/explicit/tb//apb_rf_scb.svh(64) @ 3505: uvm_test_top.rf_env_h.rf_scb [apb_rf_scb] output data is 9
# UVM_INFO E:/UVM/APB_register_file/explicit/tb/seq_lib//reg_seq_write_ctl.svh(21) @ 3530: uvm_test_top.rf_env_h.rf_agent_h.rf_sqr@@seq_2 [After Write ctl reg] ctl_reg = 9
# en = 1
# bl_y = 0
# bl_r = 0
# profile = 1
# 
# UVM_INFO E:/UVM/APB_register_file/explicit/tb//apb_rf_scb.svh(15) @ 3545: uvm_test_top.rf_env_h.rf_scb [apb_rf_scb] data rcvd from mon_port, wr_enb =1, addr =0, din =5, dout =0
# UVM_INFO E:/UVM/APB_register_file/explicit/tb//apb_rf_scb.svh(21) @ 3545: uvm_test_top.rf_env_h.rf_scb [apb_rf_scb] input data is stored in ctl 5
# UVM_INFO E:/UVM/APB_register_file/explicit/tb/seq_lib//reg_seq_read_ctl.svh(20) @ 3570: uvm_test_top.rf_env_h.rf_agent_h.rf_sqr@@seq_3 [After read ctl reg] ctl_reg = 5
# en = 1
# bl_y = 0
# bl_r = 1
# profile = 0
# read_out = 5
# UVM_INFO E:/UVM/APB_register_file/explicit/tb/seq_lib//reg_seq_write_read_ctl.svh(19) @ 3570: uvm_test_top.rf_env_h.rf_agent_h.rf_sqr@@seq_1 [Initial ctl reg] ctl_reg = 0
# en = 0
# bl_y = 0
# bl_r = 0
# profile = 0
# 
# UVM_INFO E:/UVM/APB_register_file/explicit/tb//apb_rf_scb.svh(15) @ 3585: uvm_test_top.rf_env_h.rf_scb [apb_rf_scb] data rcvd from mon_port, wr_enb =0, addr =0, din =5, dout =5
# UVM_INFO E:/UVM/APB_register_file/explicit/tb//apb_rf_scb.svh(41) @ 3585: uvm_test_top.rf_env_h.rf_scb [PASSED] ==== TEST IS PASSED ====
# UVM_INFO E:/UVM/APB_register_file/explicit/tb//apb_rf_scb.svh(64) @ 3585: uvm_test_top.rf_env_h.rf_scb [apb_rf_scb] output data is 5
# UVM_INFO E:/UVM/APB_register_file/explicit/tb/seq_lib//reg_seq_write_read_ctl.svh(28) @ 3610: uvm_test_top.rf_env_h.rf_agent_h.rf_sqr@@seq_1 [After Write ctl reg] ctl_reg = 5
# en = 1
# bl_y = 0
# bl_r = 1
# profile = 0
# 
# UVM_INFO E:/UVM/APB_register_file/explicit/tb//apb_rf_scb.svh(15) @ 3625: uvm_test_top.rf_env_h.rf_scb [apb_rf_scb] data rcvd from mon_port, wr_enb =1, addr =0, din =1, dout =0
# UVM_INFO E:/UVM/APB_register_file/explicit/tb//apb_rf_scb.svh(21) @ 3625: uvm_test_top.rf_env_h.rf_scb [apb_rf_scb] input data is stored in ctl 1
# UVM_INFO E:/UVM/APB_register_file/explicit/tb/seq_lib//reg_seq_write_read_ctl.svh(36) @ 3650: uvm_test_top.rf_env_h.rf_agent_h.rf_sqr@@seq_1 [After read ctl reg] ctl_reg = 1
# en = 1
# bl_y = 0
# bl_r = 0
# profile = 0
# read_out = 1
# UVM_INFO E:/UVM/APB_register_file/explicit/tb//apb_rf_scb.svh(15) @ 3665: uvm_test_top.rf_env_h.rf_scb [apb_rf_scb] data rcvd from mon_port, wr_enb =0, addr =0, din =1, dout =1
# UVM_INFO E:/UVM/APB_register_file/explicit/tb//apb_rf_scb.svh(41) @ 3665: uvm_test_top.rf_env_h.rf_scb [PASSED] ==== TEST IS PASSED ====
# UVM_INFO E:/UVM/APB_register_file/explicit/tb//apb_rf_scb.svh(64) @ 3665: uvm_test_top.rf_env_h.rf_scb [apb_rf_scb] output data is 1
# UVM_INFO E:/UVM/APB_register_file/explicit/tb/seq_lib//reg_seq_write_ctl.svh(21) @ 3690: uvm_test_top.rf_env_h.rf_agent_h.rf_sqr@@seq_2 [After Write ctl reg] ctl_reg = 1
# en = 1
# bl_y = 0
# bl_r = 0
# profile = 0
# 
# UVM_INFO E:/UVM/APB_register_file/explicit/tb//apb_rf_scb.svh(15) @ 3705: uvm_test_top.rf_env_h.rf_scb [apb_rf_scb] data rcvd from mon_port, wr_enb =1, addr =0, din =0, dout =0
# UVM_INFO E:/UVM/APB_register_file/explicit/tb//apb_rf_scb.svh(21) @ 3705: uvm_test_top.rf_env_h.rf_scb [apb_rf_scb] input data is stored in ctl 0
# UVM_INFO E:/UVM/APB_register_file/explicit/tb/seq_lib//reg_seq_read_ctl.svh(20) @ 3730: uvm_test_top.rf_env_h.rf_agent_h.rf_sqr@@seq_3 [After read ctl reg] ctl_reg = 0
# en = 0
# bl_y = 0
# bl_r = 0
# profile = 0
# read_out = 0
# UVM_INFO E:/UVM/APB_register_file/explicit/tb/seq_lib//reg_seq_write_read_ctl.svh(19) @ 3730: uvm_test_top.rf_env_h.rf_agent_h.rf_sqr@@seq_1 [Initial ctl reg] ctl_reg = 0
# en = 0
# bl_y = 0
# bl_r = 0
# profile = 0
# 
# UVM_INFO E:/UVM/APB_register_file/explicit/tb//apb_rf_scb.svh(15) @ 3745: uvm_test_top.rf_env_h.rf_scb [apb_rf_scb] data rcvd from mon_port, wr_enb =0, addr =0, din =0, dout =0
# UVM_INFO E:/UVM/APB_register_file/explicit/tb//apb_rf_scb.svh(41) @ 3745: uvm_test_top.rf_env_h.rf_scb [PASSED] ==== TEST IS PASSED ====
# UVM_INFO E:/UVM/APB_register_file/explicit/tb//apb_rf_scb.svh(64) @ 3745: uvm_test_top.rf_env_h.rf_scb [apb_rf_scb] output data is 0
# UVM_INFO E:/UVM/APB_register_file/explicit/tb/seq_lib//reg_seq_write_read_ctl.svh(28) @ 3770: uvm_test_top.rf_env_h.rf_agent_h.rf_sqr@@seq_1 [After Write ctl reg] ctl_reg = 0
# en = 0
# bl_y = 0
# bl_r = 0
# profile = 0
# 
# UVM_INFO E:/UVM/APB_register_file/explicit/tb//apb_rf_scb.svh(15) @ 3785: uvm_test_top.rf_env_h.rf_scb [apb_rf_scb] data rcvd from mon_port, wr_enb =1, addr =0, din =1d, dout =0
# UVM_INFO E:/UVM/APB_register_file/explicit/tb//apb_rf_scb.svh(21) @ 3785: uvm_test_top.rf_env_h.rf_scb [apb_rf_scb] input data is stored in ctl 1d
# UVM_INFO E:/UVM/APB_register_file/explicit/tb/seq_lib//reg_seq_write_read_ctl.svh(36) @ 3810: uvm_test_top.rf_env_h.rf_agent_h.rf_sqr@@seq_1 [After read ctl reg] ctl_reg = d
# en = 1
# bl_y = 0
# bl_r = 1
# profile = 1
# read_out = d
# UVM_INFO E:/UVM/APB_register_file/explicit/tb//apb_rf_scb.svh(15) @ 3825: uvm_test_top.rf_env_h.rf_scb [apb_rf_scb] data rcvd from mon_port, wr_enb =0, addr =0, din =1d, dout =d
# UVM_INFO E:/UVM/APB_register_file/explicit/tb//apb_rf_scb.svh(41) @ 3825: uvm_test_top.rf_env_h.rf_scb [PASSED] ==== TEST IS PASSED ====
# UVM_INFO E:/UVM/APB_register_file/explicit/tb//apb_rf_scb.svh(64) @ 3825: uvm_test_top.rf_env_h.rf_scb [apb_rf_scb] output data is d
# UVM_INFO E:/UVM/APB_register_file/explicit/tb/seq_lib//reg_seq_write_ctl.svh(21) @ 3850: uvm_test_top.rf_env_h.rf_agent_h.rf_sqr@@seq_2 [After Write ctl reg] ctl_reg = d
# en = 1
# bl_y = 0
# bl_r = 1
# profile = 1
# 
# UVM_INFO E:/UVM/APB_register_file/explicit/tb//apb_rf_scb.svh(15) @ 3865: uvm_test_top.rf_env_h.rf_scb [apb_rf_scb] data rcvd from mon_port, wr_enb =1, addr =0, din =c, dout =0
# UVM_INFO E:/UVM/APB_register_file/explicit/tb//apb_rf_scb.svh(21) @ 3865: uvm_test_top.rf_env_h.rf_scb [apb_rf_scb] input data is stored in ctl c
# UVM_INFO E:/UVM/APB_register_file/explicit/tb/seq_lib//reg_seq_read_ctl.svh(20) @ 3890: uvm_test_top.rf_env_h.rf_agent_h.rf_sqr@@seq_3 [After read ctl reg] ctl_reg = c
# en = 0
# bl_y = 0
# bl_r = 1
# profile = 1
# read_out = c
# UVM_INFO E:/UVM/APB_register_file/explicit/tb/seq_lib//reg_seq_write_read_ctl.svh(19) @ 3890: uvm_test_top.rf_env_h.rf_agent_h.rf_sqr@@seq_1 [Initial ctl reg] ctl_reg = 0
# en = 0
# bl_y = 0
# bl_r = 0
# profile = 0
# 
# UVM_INFO E:/UVM/APB_register_file/explicit/tb//apb_rf_scb.svh(15) @ 3905: uvm_test_top.rf_env_h.rf_scb [apb_rf_scb] data rcvd from mon_port, wr_enb =0, addr =0, din =c, dout =c
# UVM_INFO E:/UVM/APB_register_file/explicit/tb//apb_rf_scb.svh(41) @ 3905: uvm_test_top.rf_env_h.rf_scb [PASSED] ==== TEST IS PASSED ====
# UVM_INFO E:/UVM/APB_register_file/explicit/tb//apb_rf_scb.svh(64) @ 3905: uvm_test_top.rf_env_h.rf_scb [apb_rf_scb] output data is c
# UVM_INFO E:/UVM/APB_register_file/explicit/tb/seq_lib//reg_seq_write_read_ctl.svh(28) @ 3930: uvm_test_top.rf_env_h.rf_agent_h.rf_sqr@@seq_1 [After Write ctl reg] ctl_reg = c
# en = 0
# bl_y = 0
# bl_r = 1
# profile = 1
# 
# UVM_INFO E:/UVM/APB_register_file/explicit/tb//apb_rf_scb.svh(15) @ 3945: uvm_test_top.rf_env_h.rf_scb [apb_rf_scb] data rcvd from mon_port, wr_enb =1, addr =0, din =16, dout =0
# UVM_INFO E:/UVM/APB_register_file/explicit/tb//apb_rf_scb.svh(21) @ 3945: uvm_test_top.rf_env_h.rf_scb [apb_rf_scb] input data is stored in ctl 16
# UVM_INFO E:/UVM/APB_register_file/explicit/tb/seq_lib//reg_seq_write_read_ctl.svh(36) @ 3970: uvm_test_top.rf_env_h.rf_agent_h.rf_sqr@@seq_1 [After read ctl reg] ctl_reg = 6
# en = 0
# bl_y = 1
# bl_r = 1
# profile = 0
# read_out = 6
# UVM_INFO E:/UVM/APB_register_file/explicit/tb//apb_rf_scb.svh(15) @ 3985: uvm_test_top.rf_env_h.rf_scb [apb_rf_scb] data rcvd from mon_port, wr_enb =0, addr =0, din =16, dout =6
# UVM_INFO E:/UVM/APB_register_file/explicit/tb//apb_rf_scb.svh(41) @ 3985: uvm_test_top.rf_env_h.rf_scb [PASSED] ==== TEST IS PASSED ====
# UVM_INFO E:/UVM/APB_register_file/explicit/tb//apb_rf_scb.svh(64) @ 3985: uvm_test_top.rf_env_h.rf_scb [apb_rf_scb] output data is 6
# UVM_INFO E:/UVM/APB_register_file/explicit/tb/seq_lib//reg_seq_write_ctl.svh(21) @ 4010: uvm_test_top.rf_env_h.rf_agent_h.rf_sqr@@seq_2 [After Write ctl reg] ctl_reg = 6
# en = 0
# bl_y = 1
# bl_r = 1
# profile = 0
# 
# UVM_INFO E:/UVM/APB_register_file/explicit/tb//apb_rf_scb.svh(15) @ 4025: uvm_test_top.rf_env_h.rf_scb [apb_rf_scb] data rcvd from mon_port, wr_enb =1, addr =0, din =5, dout =0
# UVM_INFO E:/UVM/APB_register_file/explicit/tb//apb_rf_scb.svh(21) @ 4025: uvm_test_top.rf_env_h.rf_scb [apb_rf_scb] input data is stored in ctl 5
# UVM_INFO E:/UVM/APB_register_file/explicit/tb/seq_lib//reg_seq_read_ctl.svh(20) @ 4050: uvm_test_top.rf_env_h.rf_agent_h.rf_sqr@@seq_3 [After read ctl reg] ctl_reg = 5
# en = 1
# bl_y = 0
# bl_r = 1
# profile = 0
# read_out = 5
# UVM_INFO E:/UVM/APB_register_file/explicit/tb/seq_lib//reg_seq_write_read_ctl.svh(19) @ 4050: uvm_test_top.rf_env_h.rf_agent_h.rf_sqr@@seq_1 [Initial ctl reg] ctl_reg = 0
# en = 0
# bl_y = 0
# bl_r = 0
# profile = 0
# 
# UVM_INFO E:/UVM/APB_register_file/explicit/tb//apb_rf_scb.svh(15) @ 4065: uvm_test_top.rf_env_h.rf_scb [apb_rf_scb] data rcvd from mon_port, wr_enb =0, addr =0, din =5, dout =5
# UVM_INFO E:/UVM/APB_register_file/explicit/tb//apb_rf_scb.svh(41) @ 4065: uvm_test_top.rf_env_h.rf_scb [PASSED] ==== TEST IS PASSED ====
# UVM_INFO E:/UVM/APB_register_file/explicit/tb//apb_rf_scb.svh(64) @ 4065: uvm_test_top.rf_env_h.rf_scb [apb_rf_scb] output data is 5
# UVM_INFO E:/UVM/APB_register_file/explicit/tb/seq_lib//reg_seq_write_read_ctl.svh(28) @ 4090: uvm_test_top.rf_env_h.rf_agent_h.rf_sqr@@seq_1 [After Write ctl reg] ctl_reg = 5
# en = 1
# bl_y = 0
# bl_r = 1
# profile = 0
# 
# UVM_INFO E:/UVM/APB_register_file/explicit/tb//apb_rf_scb.svh(15) @ 4105: uvm_test_top.rf_env_h.rf_scb [apb_rf_scb] data rcvd from mon_port, wr_enb =1, addr =0, din =5, dout =0
# UVM_INFO E:/UVM/APB_register_file/explicit/tb//apb_rf_scb.svh(21) @ 4105: uvm_test_top.rf_env_h.rf_scb [apb_rf_scb] input data is stored in ctl 5
# UVM_INFO E:/UVM/APB_register_file/explicit/tb/seq_lib//reg_seq_write_read_ctl.svh(36) @ 4130: uvm_test_top.rf_env_h.rf_agent_h.rf_sqr@@seq_1 [After read ctl reg] ctl_reg = 5
# en = 1
# bl_y = 0
# bl_r = 1
# profile = 0
# read_out = 5
# UVM_INFO E:/UVM/APB_register_file/explicit/tb//apb_rf_scb.svh(15) @ 4145: uvm_test_top.rf_env_h.rf_scb [apb_rf_scb] data rcvd from mon_port, wr_enb =0, addr =0, din =5, dout =5
# UVM_INFO E:/UVM/APB_register_file/explicit/tb//apb_rf_scb.svh(41) @ 4145: uvm_test_top.rf_env_h.rf_scb [PASSED] ==== TEST IS PASSED ====
# UVM_INFO E:/UVM/APB_register_file/explicit/tb//apb_rf_scb.svh(64) @ 4145: uvm_test_top.rf_env_h.rf_scb [apb_rf_scb] output data is 5
# UVM_INFO E:/UVM/APB_register_file/explicit/tb/seq_lib//reg_seq_write_ctl.svh(21) @ 4170: uvm_test_top.rf_env_h.rf_agent_h.rf_sqr@@seq_2 [After Write ctl reg] ctl_reg = 5
# en = 1
# bl_y = 0
# bl_r = 1
# profile = 0
# 
# UVM_INFO E:/UVM/APB_register_file/explicit/tb//apb_rf_scb.svh(15) @ 4185: uvm_test_top.rf_env_h.rf_scb [apb_rf_scb] data rcvd from mon_port, wr_enb =1, addr =0, din =3, dout =0
# UVM_INFO E:/UVM/APB_register_file/explicit/tb//apb_rf_scb.svh(21) @ 4185: uvm_test_top.rf_env_h.rf_scb [apb_rf_scb] input data is stored in ctl 3
# UVM_INFO E:/UVM/APB_register_file/explicit/tb/seq_lib//reg_seq_read_ctl.svh(20) @ 4210: uvm_test_top.rf_env_h.rf_agent_h.rf_sqr@@seq_3 [After read ctl reg] ctl_reg = 3
# en = 1
# bl_y = 1
# bl_r = 0
# profile = 0
# read_out = 3
# UVM_INFO E:/UVM/APB_register_file/explicit/tb/seq_lib//reg_seq_write_read_ctl.svh(19) @ 4210: uvm_test_top.rf_env_h.rf_agent_h.rf_sqr@@seq_1 [Initial ctl reg] ctl_reg = 0
# en = 0
# bl_y = 0
# bl_r = 0
# profile = 0
# 
# UVM_INFO E:/UVM/APB_register_file/explicit/tb//apb_rf_scb.svh(15) @ 4225: uvm_test_top.rf_env_h.rf_scb [apb_rf_scb] data rcvd from mon_port, wr_enb =0, addr =0, din =3, dout =3
# UVM_INFO E:/UVM/APB_register_file/explicit/tb//apb_rf_scb.svh(41) @ 4225: uvm_test_top.rf_env_h.rf_scb [PASSED] ==== TEST IS PASSED ====
# UVM_INFO E:/UVM/APB_register_file/explicit/tb//apb_rf_scb.svh(64) @ 4225: uvm_test_top.rf_env_h.rf_scb [apb_rf_scb] output data is 3
# UVM_INFO E:/UVM/APB_register_file/explicit/tb/seq_lib//reg_seq_write_read_ctl.svh(28) @ 4250: uvm_test_top.rf_env_h.rf_agent_h.rf_sqr@@seq_1 [After Write ctl reg] ctl_reg = 3
# en = 1
# bl_y = 1
# bl_r = 0
# profile = 0
# 
# UVM_INFO E:/UVM/APB_register_file/explicit/tb//apb_rf_scb.svh(15) @ 4265: uvm_test_top.rf_env_h.rf_scb [apb_rf_scb] data rcvd from mon_port, wr_enb =1, addr =0, din =19, dout =0
# UVM_INFO E:/UVM/APB_register_file/explicit/tb//apb_rf_scb.svh(21) @ 4265: uvm_test_top.rf_env_h.rf_scb [apb_rf_scb] input data is stored in ctl 19
# UVM_INFO E:/UVM/APB_register_file/explicit/tb/seq_lib//reg_seq_write_read_ctl.svh(36) @ 4290: uvm_test_top.rf_env_h.rf_agent_h.rf_sqr@@seq_1 [After read ctl reg] ctl_reg = 9
# en = 1
# bl_y = 0
# bl_r = 0
# profile = 1
# read_out = 9
# UVM_INFO E:/UVM/APB_register_file/explicit/tb//apb_rf_scb.svh(15) @ 4305: uvm_test_top.rf_env_h.rf_scb [apb_rf_scb] data rcvd from mon_port, wr_enb =0, addr =0, din =19, dout =9
# UVM_INFO E:/UVM/APB_register_file/explicit/tb//apb_rf_scb.svh(41) @ 4305: uvm_test_top.rf_env_h.rf_scb [PASSED] ==== TEST IS PASSED ====
# UVM_INFO E:/UVM/APB_register_file/explicit/tb//apb_rf_scb.svh(64) @ 4305: uvm_test_top.rf_env_h.rf_scb [apb_rf_scb] output data is 9
# UVM_INFO E:/UVM/APB_register_file/explicit/tb/seq_lib//reg_seq_write_ctl.svh(21) @ 4330: uvm_test_top.rf_env_h.rf_agent_h.rf_sqr@@seq_2 [After Write ctl reg] ctl_reg = 9
# en = 1
# bl_y = 0
# bl_r = 0
# profile = 1
# 
# UVM_INFO E:/UVM/APB_register_file/explicit/tb//apb_rf_scb.svh(15) @ 4345: uvm_test_top.rf_env_h.rf_scb [apb_rf_scb] data rcvd from mon_port, wr_enb =1, addr =0, din =3, dout =0
# UVM_INFO E:/UVM/APB_register_file/explicit/tb//apb_rf_scb.svh(21) @ 4345: uvm_test_top.rf_env_h.rf_scb [apb_rf_scb] input data is stored in ctl 3
# UVM_INFO E:/UVM/APB_register_file/explicit/tb/seq_lib//reg_seq_read_ctl.svh(20) @ 4370: uvm_test_top.rf_env_h.rf_agent_h.rf_sqr@@seq_3 [After read ctl reg] ctl_reg = 3
# en = 1
# bl_y = 1
# bl_r = 0
# profile = 0
# read_out = 3
# UVM_INFO E:/UVM/APB_register_file/explicit/tb/seq_lib//reg_seq_write_read_ctl.svh(19) @ 4370: uvm_test_top.rf_env_h.rf_agent_h.rf_sqr@@seq_1 [Initial ctl reg] ctl_reg = 0
# en = 0
# bl_y = 0
# bl_r = 0
# profile = 0
# 
# UVM_INFO E:/UVM/APB_register_file/explicit/tb//apb_rf_scb.svh(15) @ 4385: uvm_test_top.rf_env_h.rf_scb [apb_rf_scb] data rcvd from mon_port, wr_enb =0, addr =0, din =3, dout =3
# UVM_INFO E:/UVM/APB_register_file/explicit/tb//apb_rf_scb.svh(41) @ 4385: uvm_test_top.rf_env_h.rf_scb [PASSED] ==== TEST IS PASSED ====
# UVM_INFO E:/UVM/APB_register_file/explicit/tb//apb_rf_scb.svh(64) @ 4385: uvm_test_top.rf_env_h.rf_scb [apb_rf_scb] output data is 3
# UVM_INFO E:/UVM/APB_register_file/explicit/tb/seq_lib//reg_seq_write_read_ctl.svh(28) @ 4410: uvm_test_top.rf_env_h.rf_agent_h.rf_sqr@@seq_1 [After Write ctl reg] ctl_reg = 3
# en = 1
# bl_y = 1
# bl_r = 0
# profile = 0
# 
# UVM_INFO E:/UVM/APB_register_file/explicit/tb//apb_rf_scb.svh(15) @ 4425: uvm_test_top.rf_env_h.rf_scb [apb_rf_scb] data rcvd from mon_port, wr_enb =1, addr =0, din =1d, dout =0
# UVM_INFO E:/UVM/APB_register_file/explicit/tb//apb_rf_scb.svh(21) @ 4425: uvm_test_top.rf_env_h.rf_scb [apb_rf_scb] input data is stored in ctl 1d
# UVM_INFO E:/UVM/APB_register_file/explicit/tb/seq_lib//reg_seq_write_read_ctl.svh(36) @ 4450: uvm_test_top.rf_env_h.rf_agent_h.rf_sqr@@seq_1 [After read ctl reg] ctl_reg = d
# en = 1
# bl_y = 0
# bl_r = 1
# profile = 1
# read_out = d
# UVM_INFO E:/UVM/APB_register_file/explicit/tb//apb_rf_scb.svh(15) @ 4465: uvm_test_top.rf_env_h.rf_scb [apb_rf_scb] data rcvd from mon_port, wr_enb =0, addr =0, din =1d, dout =d
# UVM_INFO E:/UVM/APB_register_file/explicit/tb//apb_rf_scb.svh(41) @ 4465: uvm_test_top.rf_env_h.rf_scb [PASSED] ==== TEST IS PASSED ====
# UVM_INFO E:/UVM/APB_register_file/explicit/tb//apb_rf_scb.svh(64) @ 4465: uvm_test_top.rf_env_h.rf_scb [apb_rf_scb] output data is d
# UVM_INFO E:/UVM/APB_register_file/explicit/tb/seq_lib//reg_seq_write_ctl.svh(21) @ 4490: uvm_test_top.rf_env_h.rf_agent_h.rf_sqr@@seq_2 [After Write ctl reg] ctl_reg = d
# en = 1
# bl_y = 0
# bl_r = 1
# profile = 1
# 
# UVM_INFO E:/UVM/APB_register_file/explicit/tb//apb_rf_scb.svh(15) @ 4505: uvm_test_top.rf_env_h.rf_scb [apb_rf_scb] data rcvd from mon_port, wr_enb =1, addr =0, din =a, dout =0
# UVM_INFO E:/UVM/APB_register_file/explicit/tb//apb_rf_scb.svh(21) @ 4505: uvm_test_top.rf_env_h.rf_scb [apb_rf_scb] input data is stored in ctl a
# UVM_INFO E:/UVM/APB_register_file/explicit/tb/seq_lib//reg_seq_read_ctl.svh(20) @ 4530: uvm_test_top.rf_env_h.rf_agent_h.rf_sqr@@seq_3 [After read ctl reg] ctl_reg = a
# en = 0
# bl_y = 1
# bl_r = 0
# profile = 1
# read_out = a
# UVM_INFO E:/UVM/APB_register_file/explicit/tb/seq_lib//reg_seq_write_read_ctl.svh(19) @ 4530: uvm_test_top.rf_env_h.rf_agent_h.rf_sqr@@seq_1 [Initial ctl reg] ctl_reg = 0
# en = 0
# bl_y = 0
# bl_r = 0
# profile = 0
# 
# UVM_INFO E:/UVM/APB_register_file/explicit/tb//apb_rf_scb.svh(15) @ 4545: uvm_test_top.rf_env_h.rf_scb [apb_rf_scb] data rcvd from mon_port, wr_enb =0, addr =0, din =a, dout =a
# UVM_INFO E:/UVM/APB_register_file/explicit/tb//apb_rf_scb.svh(41) @ 4545: uvm_test_top.rf_env_h.rf_scb [PASSED] ==== TEST IS PASSED ====
# UVM_INFO E:/UVM/APB_register_file/explicit/tb//apb_rf_scb.svh(64) @ 4545: uvm_test_top.rf_env_h.rf_scb [apb_rf_scb] output data is a
# UVM_INFO E:/UVM/APB_register_file/explicit/tb/seq_lib//reg_seq_write_read_ctl.svh(28) @ 4570: uvm_test_top.rf_env_h.rf_agent_h.rf_sqr@@seq_1 [After Write ctl reg] ctl_reg = a
# en = 0
# bl_y = 1
# bl_r = 0
# profile = 1
# 
# UVM_INFO E:/UVM/APB_register_file/explicit/tb//apb_rf_scb.svh(15) @ 4585: uvm_test_top.rf_env_h.rf_scb [apb_rf_scb] data rcvd from mon_port, wr_enb =1, addr =0, din =12, dout =0
# UVM_INFO E:/UVM/APB_register_file/explicit/tb//apb_rf_scb.svh(21) @ 4585: uvm_test_top.rf_env_h.rf_scb [apb_rf_scb] input data is stored in ctl 12
# UVM_INFO E:/UVM/APB_register_file/explicit/tb/seq_lib//reg_seq_write_read_ctl.svh(36) @ 4610: uvm_test_top.rf_env_h.rf_agent_h.rf_sqr@@seq_1 [After read ctl reg] ctl_reg = 2
# en = 0
# bl_y = 1
# bl_r = 0
# profile = 0
# read_out = 2
# UVM_INFO E:/UVM/APB_register_file/explicit/tb//apb_rf_scb.svh(15) @ 4625: uvm_test_top.rf_env_h.rf_scb [apb_rf_scb] data rcvd from mon_port, wr_enb =0, addr =0, din =12, dout =2
# UVM_INFO E:/UVM/APB_register_file/explicit/tb//apb_rf_scb.svh(41) @ 4625: uvm_test_top.rf_env_h.rf_scb [PASSED] ==== TEST IS PASSED ====
# UVM_INFO E:/UVM/APB_register_file/explicit/tb//apb_rf_scb.svh(64) @ 4625: uvm_test_top.rf_env_h.rf_scb [apb_rf_scb] output data is 2
# UVM_INFO E:/UVM/APB_register_file/explicit/tb/seq_lib//reg_seq_write_ctl.svh(21) @ 4650: uvm_test_top.rf_env_h.rf_agent_h.rf_sqr@@seq_2 [After Write ctl reg] ctl_reg = 2
# en = 0
# bl_y = 1
# bl_r = 0
# profile = 0
# 
# UVM_INFO E:/UVM/APB_register_file/explicit/tb//apb_rf_scb.svh(15) @ 4665: uvm_test_top.rf_env_h.rf_scb [apb_rf_scb] data rcvd from mon_port, wr_enb =1, addr =0, din =3, dout =0
# UVM_INFO E:/UVM/APB_register_file/explicit/tb//apb_rf_scb.svh(21) @ 4665: uvm_test_top.rf_env_h.rf_scb [apb_rf_scb] input data is stored in ctl 3
# UVM_INFO E:/UVM/APB_register_file/explicit/tb/seq_lib//reg_seq_read_ctl.svh(20) @ 4690: uvm_test_top.rf_env_h.rf_agent_h.rf_sqr@@seq_3 [After read ctl reg] ctl_reg = 3
# en = 1
# bl_y = 1
# bl_r = 0
# profile = 0
# read_out = 3
# UVM_INFO E:/UVM/APB_register_file/explicit/tb/seq_lib//reg_seq_write_read_ctl.svh(19) @ 4690: uvm_test_top.rf_env_h.rf_agent_h.rf_sqr@@seq_1 [Initial ctl reg] ctl_reg = 0
# en = 0
# bl_y = 0
# bl_r = 0
# profile = 0
# 
# UVM_INFO E:/UVM/APB_register_file/explicit/tb//apb_rf_scb.svh(15) @ 4705: uvm_test_top.rf_env_h.rf_scb [apb_rf_scb] data rcvd from mon_port, wr_enb =0, addr =0, din =3, dout =3
# UVM_INFO E:/UVM/APB_register_file/explicit/tb//apb_rf_scb.svh(41) @ 4705: uvm_test_top.rf_env_h.rf_scb [PASSED] ==== TEST IS PASSED ====
# UVM_INFO E:/UVM/APB_register_file/explicit/tb//apb_rf_scb.svh(64) @ 4705: uvm_test_top.rf_env_h.rf_scb [apb_rf_scb] output data is 3
# UVM_INFO E:/UVM/APB_register_file/explicit/tb/seq_lib//reg_seq_write_read_ctl.svh(28) @ 4730: uvm_test_top.rf_env_h.rf_agent_h.rf_sqr@@seq_1 [After Write ctl reg] ctl_reg = 3
# en = 1
# bl_y = 1
# bl_r = 0
# profile = 0
# 
# UVM_INFO E:/UVM/APB_register_file/explicit/tb//apb_rf_scb.svh(15) @ 4745: uvm_test_top.rf_env_h.rf_scb [apb_rf_scb] data rcvd from mon_port, wr_enb =1, addr =0, din =1e, dout =0
# UVM_INFO E:/UVM/APB_register_file/explicit/tb//apb_rf_scb.svh(21) @ 4745: uvm_test_top.rf_env_h.rf_scb [apb_rf_scb] input data is stored in ctl 1e
# UVM_INFO E:/UVM/APB_register_file/explicit/tb/seq_lib//reg_seq_write_read_ctl.svh(36) @ 4770: uvm_test_top.rf_env_h.rf_agent_h.rf_sqr@@seq_1 [After read ctl reg] ctl_reg = e
# en = 0
# bl_y = 1
# bl_r = 1
# profile = 1
# read_out = e
# UVM_INFO E:/UVM/APB_register_file/explicit/tb//apb_rf_scb.svh(15) @ 4785: uvm_test_top.rf_env_h.rf_scb [apb_rf_scb] data rcvd from mon_port, wr_enb =0, addr =0, din =1e, dout =e
# UVM_INFO E:/UVM/APB_register_file/explicit/tb//apb_rf_scb.svh(41) @ 4785: uvm_test_top.rf_env_h.rf_scb [PASSED] ==== TEST IS PASSED ====
# UVM_INFO E:/UVM/APB_register_file/explicit/tb//apb_rf_scb.svh(64) @ 4785: uvm_test_top.rf_env_h.rf_scb [apb_rf_scb] output data is e
# UVM_INFO E:/UVM/APB_register_file/explicit/tb/seq_lib//reg_seq_write_ctl.svh(21) @ 4810: uvm_test_top.rf_env_h.rf_agent_h.rf_sqr@@seq_2 [After Write ctl reg] ctl_reg = e
# en = 0
# bl_y = 1
# bl_r = 1
# profile = 1
# 
# UVM_INFO E:/UVM/APB_register_file/explicit/tb//apb_rf_scb.svh(15) @ 4825: uvm_test_top.rf_env_h.rf_scb [apb_rf_scb] data rcvd from mon_port, wr_enb =1, addr =0, din =2, dout =0
# UVM_INFO E:/UVM/APB_register_file/explicit/tb//apb_rf_scb.svh(21) @ 4825: uvm_test_top.rf_env_h.rf_scb [apb_rf_scb] input data is stored in ctl 2
# UVM_INFO E:/UVM/APB_register_file/explicit/tb/seq_lib//reg_seq_read_ctl.svh(20) @ 4850: uvm_test_top.rf_env_h.rf_agent_h.rf_sqr@@seq_3 [After read ctl reg] ctl_reg = 2
# en = 0
# bl_y = 1
# bl_r = 0
# profile = 0
# read_out = 2
# UVM_INFO E:/UVM/APB_register_file/explicit/tb/seq_lib//reg_seq_write_read_ctl.svh(19) @ 4850: uvm_test_top.rf_env_h.rf_agent_h.rf_sqr@@seq_1 [Initial ctl reg] ctl_reg = 0
# en = 0
# bl_y = 0
# bl_r = 0
# profile = 0
# 
# UVM_INFO E:/UVM/APB_register_file/explicit/tb//apb_rf_scb.svh(15) @ 4865: uvm_test_top.rf_env_h.rf_scb [apb_rf_scb] data rcvd from mon_port, wr_enb =0, addr =0, din =2, dout =2
# UVM_INFO E:/UVM/APB_register_file/explicit/tb//apb_rf_scb.svh(41) @ 4865: uvm_test_top.rf_env_h.rf_scb [PASSED] ==== TEST IS PASSED ====
# UVM_INFO E:/UVM/APB_register_file/explicit/tb//apb_rf_scb.svh(64) @ 4865: uvm_test_top.rf_env_h.rf_scb [apb_rf_scb] output data is 2
# UVM_INFO E:/UVM/APB_register_file/explicit/tb/seq_lib//reg_seq_write_read_ctl.svh(28) @ 4890: uvm_test_top.rf_env_h.rf_agent_h.rf_sqr@@seq_1 [After Write ctl reg] ctl_reg = 2
# en = 0
# bl_y = 1
# bl_r = 0
# profile = 0
# 
# UVM_INFO E:/UVM/APB_register_file/explicit/tb//apb_rf_scb.svh(15) @ 4905: uvm_test_top.rf_env_h.rf_scb [apb_rf_scb] data rcvd from mon_port, wr_enb =1, addr =0, din =5, dout =0
# UVM_INFO E:/UVM/APB_register_file/explicit/tb//apb_rf_scb.svh(21) @ 4905: uvm_test_top.rf_env_h.rf_scb [apb_rf_scb] input data is stored in ctl 5
# UVM_INFO E:/UVM/APB_register_file/explicit/tb/seq_lib//reg_seq_write_read_ctl.svh(36) @ 4930: uvm_test_top.rf_env_h.rf_agent_h.rf_sqr@@seq_1 [After read ctl reg] ctl_reg = 5
# en = 1
# bl_y = 0
# bl_r = 1
# profile = 0
# read_out = 5
# UVM_INFO E:/UVM/APB_register_file/explicit/tb//apb_rf_scb.svh(15) @ 4945: uvm_test_top.rf_env_h.rf_scb [apb_rf_scb] data rcvd from mon_port, wr_enb =0, addr =0, din =5, dout =5
# UVM_INFO E:/UVM/APB_register_file/explicit/tb//apb_rf_scb.svh(41) @ 4945: uvm_test_top.rf_env_h.rf_scb [PASSED] ==== TEST IS PASSED ====
# UVM_INFO E:/UVM/APB_register_file/explicit/tb//apb_rf_scb.svh(64) @ 4945: uvm_test_top.rf_env_h.rf_scb [apb_rf_scb] output data is 5
# UVM_INFO E:/UVM/APB_register_file/explicit/tb/seq_lib//reg_seq_write_ctl.svh(21) @ 4970: uvm_test_top.rf_env_h.rf_agent_h.rf_sqr@@seq_2 [After Write ctl reg] ctl_reg = 5
# en = 1
# bl_y = 0
# bl_r = 1
# profile = 0
# 
# UVM_INFO E:/UVM/APB_register_file/explicit/tb//apb_rf_scb.svh(15) @ 4985: uvm_test_top.rf_env_h.rf_scb [apb_rf_scb] data rcvd from mon_port, wr_enb =1, addr =0, din =a, dout =0
# UVM_INFO E:/UVM/APB_register_file/explicit/tb//apb_rf_scb.svh(21) @ 4985: uvm_test_top.rf_env_h.rf_scb [apb_rf_scb] input data is stored in ctl a
# UVM_INFO E:/UVM/APB_register_file/explicit/tb/seq_lib//reg_seq_read_ctl.svh(20) @ 5010: uvm_test_top.rf_env_h.rf_agent_h.rf_sqr@@seq_3 [After read ctl reg] ctl_reg = a
# en = 0
# bl_y = 1
# bl_r = 0
# profile = 1
# read_out = a
# UVM_INFO E:/UVM/APB_register_file/explicit/tb/seq_lib//reg_seq_write_read_ctl.svh(19) @ 5010: uvm_test_top.rf_env_h.rf_agent_h.rf_sqr@@seq_1 [Initial ctl reg] ctl_reg = 0
# en = 0
# bl_y = 0
# bl_r = 0
# profile = 0
# 
# UVM_INFO E:/UVM/APB_register_file/explicit/tb//apb_rf_scb.svh(15) @ 5025: uvm_test_top.rf_env_h.rf_scb [apb_rf_scb] data rcvd from mon_port, wr_enb =0, addr =0, din =a, dout =a
# UVM_INFO E:/UVM/APB_register_file/explicit/tb//apb_rf_scb.svh(41) @ 5025: uvm_test_top.rf_env_h.rf_scb [PASSED] ==== TEST IS PASSED ====
# UVM_INFO E:/UVM/APB_register_file/explicit/tb//apb_rf_scb.svh(64) @ 5025: uvm_test_top.rf_env_h.rf_scb [apb_rf_scb] output data is a
# UVM_INFO E:/UVM/APB_register_file/explicit/tb/seq_lib//reg_seq_write_read_ctl.svh(28) @ 5050: uvm_test_top.rf_env_h.rf_agent_h.rf_sqr@@seq_1 [After Write ctl reg] ctl_reg = a
# en = 0
# bl_y = 1
# bl_r = 0
# profile = 1
# 
# UVM_INFO E:/UVM/APB_register_file/explicit/tb//apb_rf_scb.svh(15) @ 5065: uvm_test_top.rf_env_h.rf_scb [apb_rf_scb] data rcvd from mon_port, wr_enb =1, addr =0, din =9, dout =0
# UVM_INFO E:/UVM/APB_register_file/explicit/tb//apb_rf_scb.svh(21) @ 5065: uvm_test_top.rf_env_h.rf_scb [apb_rf_scb] input data is stored in ctl 9
# UVM_INFO E:/UVM/APB_register_file/explicit/tb/seq_lib//reg_seq_write_read_ctl.svh(36) @ 5090: uvm_test_top.rf_env_h.rf_agent_h.rf_sqr@@seq_1 [After read ctl reg] ctl_reg = 9
# en = 1
# bl_y = 0
# bl_r = 0
# profile = 1
# read_out = 9
# UVM_INFO E:/UVM/APB_register_file/explicit/tb//apb_rf_scb.svh(15) @ 5105: uvm_test_top.rf_env_h.rf_scb [apb_rf_scb] data rcvd from mon_port, wr_enb =0, addr =0, din =9, dout =9
# UVM_INFO E:/UVM/APB_register_file/explicit/tb//apb_rf_scb.svh(41) @ 5105: uvm_test_top.rf_env_h.rf_scb [PASSED] ==== TEST IS PASSED ====
# UVM_INFO E:/UVM/APB_register_file/explicit/tb//apb_rf_scb.svh(64) @ 5105: uvm_test_top.rf_env_h.rf_scb [apb_rf_scb] output data is 9
# UVM_INFO E:/UVM/APB_register_file/explicit/tb/seq_lib//reg_seq_write_ctl.svh(21) @ 5130: uvm_test_top.rf_env_h.rf_agent_h.rf_sqr@@seq_2 [After Write ctl reg] ctl_reg = 9
# en = 1
# bl_y = 0
# bl_r = 0
# profile = 1
# 
# UVM_INFO E:/UVM/APB_register_file/explicit/tb//apb_rf_scb.svh(15) @ 5145: uvm_test_top.rf_env_h.rf_scb [apb_rf_scb] data rcvd from mon_port, wr_enb =1, addr =0, din =1, dout =0
# UVM_INFO E:/UVM/APB_register_file/explicit/tb//apb_rf_scb.svh(21) @ 5145: uvm_test_top.rf_env_h.rf_scb [apb_rf_scb] input data is stored in ctl 1
# UVM_INFO E:/UVM/APB_register_file/explicit/tb/seq_lib//reg_seq_read_ctl.svh(20) @ 5170: uvm_test_top.rf_env_h.rf_agent_h.rf_sqr@@seq_3 [After read ctl reg] ctl_reg = 1
# en = 1
# bl_y = 0
# bl_r = 0
# profile = 0
# read_out = 1
# UVM_INFO E:/UVM/APB_register_file/explicit/tb/seq_lib//reg_seq_write_read_ctl.svh(19) @ 5170: uvm_test_top.rf_env_h.rf_agent_h.rf_sqr@@seq_1 [Initial ctl reg] ctl_reg = 0
# en = 0
# bl_y = 0
# bl_r = 0
# profile = 0
# 
# UVM_INFO E:/UVM/APB_register_file/explicit/tb//apb_rf_scb.svh(15) @ 5185: uvm_test_top.rf_env_h.rf_scb [apb_rf_scb] data rcvd from mon_port, wr_enb =0, addr =0, din =1, dout =1
# UVM_INFO E:/UVM/APB_register_file/explicit/tb//apb_rf_scb.svh(41) @ 5185: uvm_test_top.rf_env_h.rf_scb [PASSED] ==== TEST IS PASSED ====
# UVM_INFO E:/UVM/APB_register_file/explicit/tb//apb_rf_scb.svh(64) @ 5185: uvm_test_top.rf_env_h.rf_scb [apb_rf_scb] output data is 1
# UVM_INFO E:/UVM/APB_register_file/explicit/tb/seq_lib//reg_seq_write_read_ctl.svh(28) @ 5210: uvm_test_top.rf_env_h.rf_agent_h.rf_sqr@@seq_1 [After Write ctl reg] ctl_reg = 1
# en = 1
# bl_y = 0
# bl_r = 0
# profile = 0
# 
# UVM_INFO E:/UVM/APB_register_file/explicit/tb//apb_rf_scb.svh(15) @ 5225: uvm_test_top.rf_env_h.rf_scb [apb_rf_scb] data rcvd from mon_port, wr_enb =1, addr =0, din =1b, dout =0
# UVM_INFO E:/UVM/APB_register_file/explicit/tb//apb_rf_scb.svh(21) @ 5225: uvm_test_top.rf_env_h.rf_scb [apb_rf_scb] input data is stored in ctl 1b
# UVM_INFO E:/UVM/APB_register_file/explicit/tb/seq_lib//reg_seq_write_read_ctl.svh(36) @ 5250: uvm_test_top.rf_env_h.rf_agent_h.rf_sqr@@seq_1 [After read ctl reg] ctl_reg = b
# en = 1
# bl_y = 1
# bl_r = 0
# profile = 1
# read_out = b
# UVM_INFO E:/UVM/APB_register_file/explicit/tb//apb_rf_scb.svh(15) @ 5265: uvm_test_top.rf_env_h.rf_scb [apb_rf_scb] data rcvd from mon_port, wr_enb =0, addr =0, din =1b, dout =b
# UVM_INFO E:/UVM/APB_register_file/explicit/tb//apb_rf_scb.svh(41) @ 5265: uvm_test_top.rf_env_h.rf_scb [PASSED] ==== TEST IS PASSED ====
# UVM_INFO E:/UVM/APB_register_file/explicit/tb//apb_rf_scb.svh(64) @ 5265: uvm_test_top.rf_env_h.rf_scb [apb_rf_scb] output data is b
# UVM_INFO E:/UVM/APB_register_file/explicit/tb/seq_lib//reg_seq_write_ctl.svh(21) @ 5290: uvm_test_top.rf_env_h.rf_agent_h.rf_sqr@@seq_2 [After Write ctl reg] ctl_reg = b
# en = 1
# bl_y = 1
# bl_r = 0
# profile = 1
# 
# UVM_INFO E:/UVM/APB_register_file/explicit/tb//apb_rf_scb.svh(15) @ 5305: uvm_test_top.rf_env_h.rf_scb [apb_rf_scb] data rcvd from mon_port, wr_enb =1, addr =0, din =2, dout =0
# UVM_INFO E:/UVM/APB_register_file/explicit/tb//apb_rf_scb.svh(21) @ 5305: uvm_test_top.rf_env_h.rf_scb [apb_rf_scb] input data is stored in ctl 2
# UVM_INFO E:/UVM/APB_register_file/explicit/tb/seq_lib//reg_seq_read_ctl.svh(20) @ 5330: uvm_test_top.rf_env_h.rf_agent_h.rf_sqr@@seq_3 [After read ctl reg] ctl_reg = 2
# en = 0
# bl_y = 1
# bl_r = 0
# profile = 0
# read_out = 2
# UVM_INFO E:/UVM/APB_register_file/explicit/tb/seq_lib//reg_seq_write_read_ctl.svh(19) @ 5330: uvm_test_top.rf_env_h.rf_agent_h.rf_sqr@@seq_1 [Initial ctl reg] ctl_reg = 0
# en = 0
# bl_y = 0
# bl_r = 0
# profile = 0
# 
# UVM_INFO E:/UVM/APB_register_file/explicit/tb//apb_rf_scb.svh(15) @ 5345: uvm_test_top.rf_env_h.rf_scb [apb_rf_scb] data rcvd from mon_port, wr_enb =0, addr =0, din =2, dout =2
# UVM_INFO E:/UVM/APB_register_file/explicit/tb//apb_rf_scb.svh(41) @ 5345: uvm_test_top.rf_env_h.rf_scb [PASSED] ==== TEST IS PASSED ====
# UVM_INFO E:/UVM/APB_register_file/explicit/tb//apb_rf_scb.svh(64) @ 5345: uvm_test_top.rf_env_h.rf_scb [apb_rf_scb] output data is 2
# UVM_INFO E:/UVM/APB_register_file/explicit/tb/seq_lib//reg_seq_write_read_ctl.svh(28) @ 5370: uvm_test_top.rf_env_h.rf_agent_h.rf_sqr@@seq_1 [After Write ctl reg] ctl_reg = 2
# en = 0
# bl_y = 1
# bl_r = 0
# profile = 0
# 
# UVM_INFO E:/UVM/APB_register_file/explicit/tb//apb_rf_scb.svh(15) @ 5385: uvm_test_top.rf_env_h.rf_scb [apb_rf_scb] data rcvd from mon_port, wr_enb =1, addr =0, din =9, dout =0
# UVM_INFO E:/UVM/APB_register_file/explicit/tb//apb_rf_scb.svh(21) @ 5385: uvm_test_top.rf_env_h.rf_scb [apb_rf_scb] input data is stored in ctl 9
# UVM_INFO E:/UVM/APB_register_file/explicit/tb/seq_lib//reg_seq_write_read_ctl.svh(36) @ 5410: uvm_test_top.rf_env_h.rf_agent_h.rf_sqr@@seq_1 [After read ctl reg] ctl_reg = 9
# en = 1
# bl_y = 0
# bl_r = 0
# profile = 1
# read_out = 9
# UVM_INFO E:/UVM/APB_register_file/explicit/tb//apb_rf_scb.svh(15) @ 5425: uvm_test_top.rf_env_h.rf_scb [apb_rf_scb] data rcvd from mon_port, wr_enb =0, addr =0, din =9, dout =9
# UVM_INFO E:/UVM/APB_register_file/explicit/tb//apb_rf_scb.svh(41) @ 5425: uvm_test_top.rf_env_h.rf_scb [PASSED] ==== TEST IS PASSED ====
# UVM_INFO E:/UVM/APB_register_file/explicit/tb//apb_rf_scb.svh(64) @ 5425: uvm_test_top.rf_env_h.rf_scb [apb_rf_scb] output data is 9
# UVM_INFO E:/UVM/APB_register_file/explicit/tb/seq_lib//reg_seq_write_ctl.svh(21) @ 5450: uvm_test_top.rf_env_h.rf_agent_h.rf_sqr@@seq_2 [After Write ctl reg] ctl_reg = 9
# en = 1
# bl_y = 0
# bl_r = 0
# profile = 1
# 
# UVM_INFO E:/UVM/APB_register_file/explicit/tb//apb_rf_scb.svh(15) @ 5465: uvm_test_top.rf_env_h.rf_scb [apb_rf_scb] data rcvd from mon_port, wr_enb =1, addr =0, din =3, dout =0
# UVM_INFO E:/UVM/APB_register_file/explicit/tb//apb_rf_scb.svh(21) @ 5465: uvm_test_top.rf_env_h.rf_scb [apb_rf_scb] input data is stored in ctl 3
# UVM_INFO E:/UVM/APB_register_file/explicit/tb/seq_lib//reg_seq_read_ctl.svh(20) @ 5490: uvm_test_top.rf_env_h.rf_agent_h.rf_sqr@@seq_3 [After read ctl reg] ctl_reg = 3
# en = 1
# bl_y = 1
# bl_r = 0
# profile = 0
# read_out = 3
# UVM_INFO E:/UVM/APB_register_file/explicit/tb/seq_lib//reg_seq_write_read_ctl.svh(19) @ 5490: uvm_test_top.rf_env_h.rf_agent_h.rf_sqr@@seq_1 [Initial ctl reg] ctl_reg = 0
# en = 0
# bl_y = 0
# bl_r = 0
# profile = 0
# 
# UVM_INFO E:/UVM/APB_register_file/explicit/tb//apb_rf_scb.svh(15) @ 5505: uvm_test_top.rf_env_h.rf_scb [apb_rf_scb] data rcvd from mon_port, wr_enb =0, addr =0, din =3, dout =3
# UVM_INFO E:/UVM/APB_register_file/explicit/tb//apb_rf_scb.svh(41) @ 5505: uvm_test_top.rf_env_h.rf_scb [PASSED] ==== TEST IS PASSED ====
# UVM_INFO E:/UVM/APB_register_file/explicit/tb//apb_rf_scb.svh(64) @ 5505: uvm_test_top.rf_env_h.rf_scb [apb_rf_scb] output data is 3
# UVM_INFO E:/UVM/APB_register_file/explicit/tb/seq_lib//reg_seq_write_read_ctl.svh(28) @ 5530: uvm_test_top.rf_env_h.rf_agent_h.rf_sqr@@seq_1 [After Write ctl reg] ctl_reg = 3
# en = 1
# bl_y = 1
# bl_r = 0
# profile = 0
# 
# UVM_INFO E:/UVM/APB_register_file/explicit/tb//apb_rf_scb.svh(15) @ 5545: uvm_test_top.rf_env_h.rf_scb [apb_rf_scb] data rcvd from mon_port, wr_enb =1, addr =0, din =18, dout =0
# UVM_INFO E:/UVM/APB_register_file/explicit/tb//apb_rf_scb.svh(21) @ 5545: uvm_test_top.rf_env_h.rf_scb [apb_rf_scb] input data is stored in ctl 18
# UVM_INFO E:/UVM/APB_register_file/explicit/tb/seq_lib//reg_seq_write_read_ctl.svh(36) @ 5570: uvm_test_top.rf_env_h.rf_agent_h.rf_sqr@@seq_1 [After read ctl reg] ctl_reg = 8
# en = 0
# bl_y = 0
# bl_r = 0
# profile = 1
# read_out = 8
# UVM_INFO E:/UVM/APB_register_file/explicit/tb//apb_rf_scb.svh(15) @ 5585: uvm_test_top.rf_env_h.rf_scb [apb_rf_scb] data rcvd from mon_port, wr_enb =0, addr =0, din =18, dout =8
# UVM_INFO E:/UVM/APB_register_file/explicit/tb//apb_rf_scb.svh(41) @ 5585: uvm_test_top.rf_env_h.rf_scb [PASSED] ==== TEST IS PASSED ====
# UVM_INFO E:/UVM/APB_register_file/explicit/tb//apb_rf_scb.svh(64) @ 5585: uvm_test_top.rf_env_h.rf_scb [apb_rf_scb] output data is 8
# UVM_INFO E:/UVM/APB_register_file/explicit/tb/seq_lib//reg_seq_write_ctl.svh(21) @ 5610: uvm_test_top.rf_env_h.rf_agent_h.rf_sqr@@seq_2 [After Write ctl reg] ctl_reg = 8
# en = 0
# bl_y = 0
# bl_r = 0
# profile = 1
# 
# UVM_INFO E:/UVM/APB_register_file/explicit/tb//apb_rf_scb.svh(15) @ 5625: uvm_test_top.rf_env_h.rf_scb [apb_rf_scb] data rcvd from mon_port, wr_enb =1, addr =0, din =0, dout =0
# UVM_INFO E:/UVM/APB_register_file/explicit/tb//apb_rf_scb.svh(21) @ 5625: uvm_test_top.rf_env_h.rf_scb [apb_rf_scb] input data is stored in ctl 0
# UVM_INFO E:/UVM/APB_register_file/explicit/tb/seq_lib//reg_seq_read_ctl.svh(20) @ 5650: uvm_test_top.rf_env_h.rf_agent_h.rf_sqr@@seq_3 [After read ctl reg] ctl_reg = 0
# en = 0
# bl_y = 0
# bl_r = 0
# profile = 0
# read_out = 0
# UVM_INFO E:/UVM/APB_register_file/explicit/tb/seq_lib//reg_seq_write_read_ctl.svh(19) @ 5650: uvm_test_top.rf_env_h.rf_agent_h.rf_sqr@@seq_1 [Initial ctl reg] ctl_reg = 0
# en = 0
# bl_y = 0
# bl_r = 0
# profile = 0
# 
# UVM_INFO E:/UVM/APB_register_file/explicit/tb//apb_rf_scb.svh(15) @ 5665: uvm_test_top.rf_env_h.rf_scb [apb_rf_scb] data rcvd from mon_port, wr_enb =0, addr =0, din =0, dout =0
# UVM_INFO E:/UVM/APB_register_file/explicit/tb//apb_rf_scb.svh(41) @ 5665: uvm_test_top.rf_env_h.rf_scb [PASSED] ==== TEST IS PASSED ====
# UVM_INFO E:/UVM/APB_register_file/explicit/tb//apb_rf_scb.svh(64) @ 5665: uvm_test_top.rf_env_h.rf_scb [apb_rf_scb] output data is 0
# UVM_INFO E:/UVM/APB_register_file/explicit/tb/seq_lib//reg_seq_write_read_ctl.svh(28) @ 5690: uvm_test_top.rf_env_h.rf_agent_h.rf_sqr@@seq_1 [After Write ctl reg] ctl_reg = 0
# en = 0
# bl_y = 0
# bl_r = 0
# profile = 0
# 
# UVM_INFO E:/UVM/APB_register_file/explicit/tb//apb_rf_scb.svh(15) @ 5705: uvm_test_top.rf_env_h.rf_scb [apb_rf_scb] data rcvd from mon_port, wr_enb =1, addr =0, din =3, dout =0
# UVM_INFO E:/UVM/APB_register_file/explicit/tb//apb_rf_scb.svh(21) @ 5705: uvm_test_top.rf_env_h.rf_scb [apb_rf_scb] input data is stored in ctl 3
# UVM_INFO E:/UVM/APB_register_file/explicit/tb/seq_lib//reg_seq_write_read_ctl.svh(36) @ 5730: uvm_test_top.rf_env_h.rf_agent_h.rf_sqr@@seq_1 [After read ctl reg] ctl_reg = 3
# en = 1
# bl_y = 1
# bl_r = 0
# profile = 0
# read_out = 3
# UVM_INFO E:/UVM/APB_register_file/explicit/tb//apb_rf_scb.svh(15) @ 5745: uvm_test_top.rf_env_h.rf_scb [apb_rf_scb] data rcvd from mon_port, wr_enb =0, addr =0, din =3, dout =3
# UVM_INFO E:/UVM/APB_register_file/explicit/tb//apb_rf_scb.svh(41) @ 5745: uvm_test_top.rf_env_h.rf_scb [PASSED] ==== TEST IS PASSED ====
# UVM_INFO E:/UVM/APB_register_file/explicit/tb//apb_rf_scb.svh(64) @ 5745: uvm_test_top.rf_env_h.rf_scb [apb_rf_scb] output data is 3
