# vsim +UVM_TESTNAME=rf_wr_to_test -assertdebug -coverage -fsmdebug -c -debugDB top_opt 
# Loading sv_std.std
# Loading mtiUvm.uvm_pkg
# Loading work.param_pkg
# Loading work.seq_item_pkg
# Loading work.reg_model_pkg
# Loading work.seq_lib_pkg
# Loading work.rf_agent_pkg
# Loading work.test_lib_pkg
# Loading work.apb_rf_pkg
# Loading work.top_sv_unit
# Loading work.top(fast)
# Loading work.apb_rf_intf(fast)
# Loading work.apb_register_file(fast)
# Loading D:\questasim_10.0b\uvm-1.0p1\win32\uvm_dpi.dll
# ** Warning: (vsim-WLF-5000) WLF file currently in use: vsim.wlf
#           File in use by:   Hostname:   ProcessID: 117
#           Attempting to use alternate WLF file "./wlftw9v9wt".
# ** Warning: (vsim-WLF-5001) Could not open WLF file: vsim.wlf
#           Using alternate file: ./wlftw9v9wt
# ** Note: (vsim-8716) Reusing existing debug database vsim.dbg.
# 1
# ----------------------------------------------------------------
# UVM-1.0p1 
# (C) 2007-2011 Mentor Graphics Corporation
# (C) 2007-2011 Cadence Design Systems, Inc.
# (C) 2006-2011 Synopsys, Inc.
# ----------------------------------------------------------------
# UVM_INFO @ 0: reporter [RNTST] Running test rf_wr_to_test...
# UVM_INFO @ 0: reporter [UVMTOP] UVM testbench topology:
# --------------------------------------------------------------
# Name                       Type                    Size  Value
# --------------------------------------------------------------
# uvm_test_top               rf_wr_to_test           -     @460 
#   rf_env_h                 apb_rf_env              -     @469 
#     predictor_h            uvm_component           -     @537 
#       bus_in               uvm_analysis_imp        -     @544 
#       reg_ap               uvm_analysis_port       -     @552 
#     rf_agent_h             rf_agent                -     @489 
#       rf_drv               rf_driver               -     @672 
#         rsp_port           uvm_analysis_port       -     @687 
#         sqr_pull_port      uvm_seq_item_pull_port  -     @679 
#       rf_mon               rf_monitor              -     @695 
#         mon_port           uvm_analysis_port       -     @702 
#       rf_sqr               rf_sequencer            -     @563 
#         rsp_export         uvm_analysis_export     -     @570 
#         seq_item_export    uvm_seq_item_pull_imp   -     @664 
#         arbitration_queue  array                   0     -    
#         lock_queue         array                   0     -    
#         num_last_reqs      integral                32    'd1  
#         num_last_rsps      integral                32    'd1  
#     rf_scb                 apb_rf_scb              -     @522 
#       scb_imp              uvm_analysis_imp        -     @529 
# --------------------------------------------------------------
# 
# UVM_INFO E:/UVM/APB_register_file/explicit/tb/seq_lib//reg_seq_write_read_to.svh(18) @ 0: uvm_test_top.rf_env_h.rf_agent_h.rf_sqr@@seq_1 [Initial timer_0 reg] timer_0_reg = cafe1234
# timer_y2r = 34
# timer_r2g = e12
# timer_g2y = caf
# 
# UVM_INFO E:/UVM/APB_register_file/explicit/tb/seq_lib//reg_seq_write_read_to.svh(26) @ 90: uvm_test_top.rf_env_h.rf_agent_h.rf_sqr@@seq_1 [After Write timer_0 reg] timer_0_reg = 0
# timer_y2r = 0
# timer_r2g = 0
# timer_g2y = 0
# 
# UVM_INFO E:/UVM/APB_register_file/explicit/tb//apb_rf_scb.svh(15) @ 105: uvm_test_top.rf_env_h.rf_scb [apb_rf_scb] data rcvd from mon_port, wr_enb =1, addr =4, din =8f872533, dout =0
# UVM_INFO E:/UVM/APB_register_file/explicit/tb//apb_rf_scb.svh(25) @ 105: uvm_test_top.rf_env_h.rf_scb [apb_rf_scb] input data is stored in to 8f872533
# UVM_INFO E:/UVM/APB_register_file/explicit/tb/seq_lib//reg_seq_write_read_to.svh(33) @ 130: uvm_test_top.rf_env_h.rf_agent_h.rf_sqr@@seq_1 [After read timer_0 reg] timer_0_reg = 8f872533
# timer_y2r = 33
# timer_r2g = 725
# timer_g2y = 8f8
# read_out = 8f872533
# UVM_INFO E:/UVM/APB_register_file/explicit/tb//apb_rf_scb.svh(15) @ 145: uvm_test_top.rf_env_h.rf_scb [apb_rf_scb] data rcvd from mon_port, wr_enb =0, addr =4, din =8f872533, dout =8f872533
# UVM_INFO E:/UVM/APB_register_file/explicit/tb//apb_rf_scb.svh(47) @ 145: uvm_test_top.rf_env_h.rf_scb [PASSED] ==== TEST IS PASSED ====
# UVM_INFO E:/UVM/APB_register_file/explicit/tb//apb_rf_scb.svh(64) @ 145: uvm_test_top.rf_env_h.rf_scb [apb_rf_scb] output data is 8f872533
# UVM_INFO E:/UVM/APB_register_file/explicit/tb/seq_lib//reg_seq_write_to.svh(20) @ 170: uvm_test_top.rf_env_h.rf_agent_h.rf_sqr@@seq_2 [After Write timer_0 reg] timer_0_reg = 8f872533
# timer_y2r = 33
# timer_r2g = 725
# timer_g2y = 8f8
# 
# UVM_INFO E:/UVM/APB_register_file/explicit/tb//apb_rf_scb.svh(15) @ 185: uvm_test_top.rf_env_h.rf_scb [apb_rf_scb] data rcvd from mon_port, wr_enb =1, addr =4, din =4, dout =0
# UVM_INFO E:/UVM/APB_register_file/explicit/tb//apb_rf_scb.svh(25) @ 185: uvm_test_top.rf_env_h.rf_scb [apb_rf_scb] input data is stored in to 4
# UVM_INFO E:/UVM/APB_register_file/explicit/tb/seq_lib//reg_seq_read_to.svh(19) @ 210: uvm_test_top.rf_env_h.rf_agent_h.rf_sqr@@seq_3 [After read timer_0 reg] timer_0_reg = 4
# timer_y2r = 4
# timer_r2g = 0
# timer_g2y = 0
# read_out = 4
# UVM_INFO E:/UVM/APB_register_file/explicit/tb/seq_lib//reg_seq_write_read_to.svh(18) @ 210: uvm_test_top.rf_env_h.rf_agent_h.rf_sqr@@seq_1 [Initial timer_0 reg] timer_0_reg = cafe1234
# timer_y2r = 34
# timer_r2g = e12
# timer_g2y = caf
# 
# UVM_INFO E:/UVM/APB_register_file/explicit/tb//apb_rf_scb.svh(15) @ 225: uvm_test_top.rf_env_h.rf_scb [apb_rf_scb] data rcvd from mon_port, wr_enb =0, addr =4, din =4, dout =4
# UVM_INFO E:/UVM/APB_register_file/explicit/tb//apb_rf_scb.svh(47) @ 225: uvm_test_top.rf_env_h.rf_scb [PASSED] ==== TEST IS PASSED ====
# UVM_INFO E:/UVM/APB_register_file/explicit/tb//apb_rf_scb.svh(64) @ 225: uvm_test_top.rf_env_h.rf_scb [apb_rf_scb] output data is 4
# UVM_INFO E:/UVM/APB_register_file/explicit/tb/seq_lib//reg_seq_write_read_to.svh(26) @ 250: uvm_test_top.rf_env_h.rf_agent_h.rf_sqr@@seq_1 [After Write timer_0 reg] timer_0_reg = 4
# timer_y2r = 4
# timer_r2g = 0
# timer_g2y = 0
# 
# UVM_INFO E:/UVM/APB_register_file/explicit/tb//apb_rf_scb.svh(15) @ 265: uvm_test_top.rf_env_h.rf_scb [apb_rf_scb] data rcvd from mon_port, wr_enb =1, addr =4, din =119f7d00, dout =0
# UVM_INFO E:/UVM/APB_register_file/explicit/tb//apb_rf_scb.svh(25) @ 265: uvm_test_top.rf_env_h.rf_scb [apb_rf_scb] input data is stored in to 119f7d00
# UVM_INFO E:/UVM/APB_register_file/explicit/tb/seq_lib//reg_seq_write_read_to.svh(33) @ 290: uvm_test_top.rf_env_h.rf_agent_h.rf_sqr@@seq_1 [After read timer_0 reg] timer_0_reg = 119f7d00
# timer_y2r = 0
# timer_r2g = f7d
# timer_g2y = 119
# read_out = 119f7d00
# UVM_INFO E:/UVM/APB_register_file/explicit/tb//apb_rf_scb.svh(15) @ 305: uvm_test_top.rf_env_h.rf_scb [apb_rf_scb] data rcvd from mon_port, wr_enb =0, addr =4, din =119f7d00, dout =119f7d00
# UVM_INFO E:/UVM/APB_register_file/explicit/tb//apb_rf_scb.svh(47) @ 305: uvm_test_top.rf_env_h.rf_scb [PASSED] ==== TEST IS PASSED ====
# UVM_INFO E:/UVM/APB_register_file/explicit/tb//apb_rf_scb.svh(64) @ 305: uvm_test_top.rf_env_h.rf_scb [apb_rf_scb] output data is 119f7d00
# UVM_INFO E:/UVM/APB_register_file/explicit/tb/seq_lib//reg_seq_write_to.svh(20) @ 330: uvm_test_top.rf_env_h.rf_agent_h.rf_sqr@@seq_2 [After Write timer_0 reg] timer_0_reg = 119f7d00
# timer_y2r = 0
# timer_r2g = f7d
# timer_g2y = 119
# 
# UVM_INFO E:/UVM/APB_register_file/explicit/tb//apb_rf_scb.svh(15) @ 345: uvm_test_top.rf_env_h.rf_scb [apb_rf_scb] data rcvd from mon_port, wr_enb =1, addr =4, din =1e, dout =0
# UVM_INFO E:/UVM/APB_register_file/explicit/tb//apb_rf_scb.svh(25) @ 345: uvm_test_top.rf_env_h.rf_scb [apb_rf_scb] input data is stored in to 1e
# UVM_INFO E:/UVM/APB_register_file/explicit/tb/seq_lib//reg_seq_read_to.svh(19) @ 370: uvm_test_top.rf_env_h.rf_agent_h.rf_sqr@@seq_3 [After read timer_0 reg] timer_0_reg = 1e
# timer_y2r = 1e
# timer_r2g = 0
# timer_g2y = 0
# read_out = 1e
# UVM_INFO E:/UVM/APB_register_file/explicit/tb/seq_lib//reg_seq_write_read_to.svh(18) @ 370: uvm_test_top.rf_env_h.rf_agent_h.rf_sqr@@seq_1 [Initial timer_0 reg] timer_0_reg = cafe1234
# timer_y2r = 34
# timer_r2g = e12
# timer_g2y = caf
# 
# UVM_INFO E:/UVM/APB_register_file/explicit/tb//apb_rf_scb.svh(15) @ 385: uvm_test_top.rf_env_h.rf_scb [apb_rf_scb] data rcvd from mon_port, wr_enb =0, addr =4, din =1e, dout =1e
# UVM_INFO E:/UVM/APB_register_file/explicit/tb//apb_rf_scb.svh(47) @ 385: uvm_test_top.rf_env_h.rf_scb [PASSED] ==== TEST IS PASSED ====
# UVM_INFO E:/UVM/APB_register_file/explicit/tb//apb_rf_scb.svh(64) @ 385: uvm_test_top.rf_env_h.rf_scb [apb_rf_scb] output data is 1e
# UVM_INFO E:/UVM/APB_register_file/explicit/tb/seq_lib//reg_seq_write_read_to.svh(26) @ 410: uvm_test_top.rf_env_h.rf_agent_h.rf_sqr@@seq_1 [After Write timer_0 reg] timer_0_reg = 1e
# timer_y2r = 1e
# timer_r2g = 0
# timer_g2y = 0
# 
# UVM_INFO E:/UVM/APB_register_file/explicit/tb//apb_rf_scb.svh(15) @ 425: uvm_test_top.rf_env_h.rf_scb [apb_rf_scb] data rcvd from mon_port, wr_enb =1, addr =4, din =880359ea, dout =0
# UVM_INFO E:/UVM/APB_register_file/explicit/tb//apb_rf_scb.svh(25) @ 425: uvm_test_top.rf_env_h.rf_scb [apb_rf_scb] input data is stored in to 880359ea
# UVM_INFO E:/UVM/APB_register_file/explicit/tb/seq_lib//reg_seq_write_read_to.svh(33) @ 450: uvm_test_top.rf_env_h.rf_agent_h.rf_sqr@@seq_1 [After read timer_0 reg] timer_0_reg = 880359ea
# timer_y2r = ea
# timer_r2g = 359
# timer_g2y = 880
# read_out = 880359ea
# UVM_INFO E:/UVM/APB_register_file/explicit/tb//apb_rf_scb.svh(15) @ 465: uvm_test_top.rf_env_h.rf_scb [apb_rf_scb] data rcvd from mon_port, wr_enb =0, addr =4, din =880359ea, dout =880359ea
# UVM_INFO E:/UVM/APB_register_file/explicit/tb//apb_rf_scb.svh(47) @ 465: uvm_test_top.rf_env_h.rf_scb [PASSED] ==== TEST IS PASSED ====
# UVM_INFO E:/UVM/APB_register_file/explicit/tb//apb_rf_scb.svh(64) @ 465: uvm_test_top.rf_env_h.rf_scb [apb_rf_scb] output data is 880359ea
# UVM_INFO E:/UVM/APB_register_file/explicit/tb/seq_lib//reg_seq_write_to.svh(20) @ 490: uvm_test_top.rf_env_h.rf_agent_h.rf_sqr@@seq_2 [After Write timer_0 reg] timer_0_reg = 880359ea
# timer_y2r = ea
# timer_r2g = 359
# timer_g2y = 880
# 
# UVM_INFO E:/UVM/APB_register_file/explicit/tb//apb_rf_scb.svh(15) @ 505: uvm_test_top.rf_env_h.rf_scb [apb_rf_scb] data rcvd from mon_port, wr_enb =1, addr =4, din =7, dout =0
# UVM_INFO E:/UVM/APB_register_file/explicit/tb//apb_rf_scb.svh(25) @ 505: uvm_test_top.rf_env_h.rf_scb [apb_rf_scb] input data is stored in to 7
# UVM_INFO E:/UVM/APB_register_file/explicit/tb/seq_lib//reg_seq_read_to.svh(19) @ 530: uvm_test_top.rf_env_h.rf_agent_h.rf_sqr@@seq_3 [After read timer_0 reg] timer_0_reg = 7
# timer_y2r = 7
# timer_r2g = 0
# timer_g2y = 0
# read_out = 7
# UVM_INFO E:/UVM/APB_register_file/explicit/tb/seq_lib//reg_seq_write_read_to.svh(18) @ 530: uvm_test_top.rf_env_h.rf_agent_h.rf_sqr@@seq_1 [Initial timer_0 reg] timer_0_reg = cafe1234
# timer_y2r = 34
# timer_r2g = e12
# timer_g2y = caf
# 
# UVM_INFO E:/UVM/APB_register_file/explicit/tb//apb_rf_scb.svh(15) @ 545: uvm_test_top.rf_env_h.rf_scb [apb_rf_scb] data rcvd from mon_port, wr_enb =0, addr =4, din =7, dout =7
# UVM_INFO E:/UVM/APB_register_file/explicit/tb//apb_rf_scb.svh(47) @ 545: uvm_test_top.rf_env_h.rf_scb [PASSED] ==== TEST IS PASSED ====
# UVM_INFO E:/UVM/APB_register_file/explicit/tb//apb_rf_scb.svh(64) @ 545: uvm_test_top.rf_env_h.rf_scb [apb_rf_scb] output data is 7
# UVM_INFO E:/UVM/APB_register_file/explicit/tb/seq_lib//reg_seq_write_read_to.svh(26) @ 570: uvm_test_top.rf_env_h.rf_agent_h.rf_sqr@@seq_1 [After Write timer_0 reg] timer_0_reg = 7
# timer_y2r = 7
# timer_r2g = 0
# timer_g2y = 0
# 
# UVM_INFO E:/UVM/APB_register_file/explicit/tb//apb_rf_scb.svh(15) @ 585: uvm_test_top.rf_env_h.rf_scb [apb_rf_scb] data rcvd from mon_port, wr_enb =1, addr =4, din =eb4bbf5a, dout =0
# UVM_INFO E:/UVM/APB_register_file/explicit/tb//apb_rf_scb.svh(25) @ 585: uvm_test_top.rf_env_h.rf_scb [apb_rf_scb] input data is stored in to eb4bbf5a
# UVM_INFO E:/UVM/APB_register_file/explicit/tb/seq_lib//reg_seq_write_read_to.svh(33) @ 610: uvm_test_top.rf_env_h.rf_agent_h.rf_sqr@@seq_1 [After read timer_0 reg] timer_0_reg = eb4bbf5a
# timer_y2r = 5a
# timer_r2g = bbf
# timer_g2y = eb4
# read_out = eb4bbf5a
# UVM_INFO E:/UVM/APB_register_file/explicit/tb//apb_rf_scb.svh(15) @ 625: uvm_test_top.rf_env_h.rf_scb [apb_rf_scb] data rcvd from mon_port, wr_enb =0, addr =4, din =eb4bbf5a, dout =eb4bbf5a
# UVM_INFO E:/UVM/APB_register_file/explicit/tb//apb_rf_scb.svh(47) @ 625: uvm_test_top.rf_env_h.rf_scb [PASSED] ==== TEST IS PASSED ====
# UVM_INFO E:/UVM/APB_register_file/explicit/tb//apb_rf_scb.svh(64) @ 625: uvm_test_top.rf_env_h.rf_scb [apb_rf_scb] output data is eb4bbf5a
# UVM_INFO E:/UVM/APB_register_file/explicit/tb/seq_lib//reg_seq_write_to.svh(20) @ 650: uvm_test_top.rf_env_h.rf_agent_h.rf_sqr@@seq_2 [After Write timer_0 reg] timer_0_reg = eb4bbf5a
# timer_y2r = 5a
# timer_r2g = bbf
# timer_g2y = eb4
# 
# UVM_INFO E:/UVM/APB_register_file/explicit/tb//apb_rf_scb.svh(15) @ 665: uvm_test_top.rf_env_h.rf_scb [apb_rf_scb] data rcvd from mon_port, wr_enb =1, addr =4, din =1, dout =0
# UVM_INFO E:/UVM/APB_register_file/explicit/tb//apb_rf_scb.svh(25) @ 665: uvm_test_top.rf_env_h.rf_scb [apb_rf_scb] input data is stored in to 1
# UVM_INFO E:/UVM/APB_register_file/explicit/tb/seq_lib//reg_seq_read_to.svh(19) @ 690: uvm_test_top.rf_env_h.rf_agent_h.rf_sqr@@seq_3 [After read timer_0 reg] timer_0_reg = 1
# timer_y2r = 1
# timer_r2g = 0
# timer_g2y = 0
# read_out = 1
# UVM_INFO E:/UVM/APB_register_file/explicit/tb/seq_lib//reg_seq_write_read_to.svh(18) @ 690: uvm_test_top.rf_env_h.rf_agent_h.rf_sqr@@seq_1 [Initial timer_0 reg] timer_0_reg = cafe1234
# timer_y2r = 34
# timer_r2g = e12
# timer_g2y = caf
# 
# UVM_INFO E:/UVM/APB_register_file/explicit/tb//apb_rf_scb.svh(15) @ 705: uvm_test_top.rf_env_h.rf_scb [apb_rf_scb] data rcvd from mon_port, wr_enb =0, addr =4, din =1, dout =1
# UVM_INFO E:/UVM/APB_register_file/explicit/tb//apb_rf_scb.svh(47) @ 705: uvm_test_top.rf_env_h.rf_scb [PASSED] ==== TEST IS PASSED ====
# UVM_INFO E:/UVM/APB_register_file/explicit/tb//apb_rf_scb.svh(64) @ 705: uvm_test_top.rf_env_h.rf_scb [apb_rf_scb] output data is 1
# UVM_INFO E:/UVM/APB_register_file/explicit/tb/seq_lib//reg_seq_write_read_to.svh(26) @ 730: uvm_test_top.rf_env_h.rf_agent_h.rf_sqr@@seq_1 [After Write timer_0 reg] timer_0_reg = 1
# timer_y2r = 1
# timer_r2g = 0
# timer_g2y = 0
# 
# UVM_INFO E:/UVM/APB_register_file/explicit/tb//apb_rf_scb.svh(15) @ 745: uvm_test_top.rf_env_h.rf_scb [apb_rf_scb] data rcvd from mon_port, wr_enb =1, addr =4, din =4790e673, dout =0
# UVM_INFO E:/UVM/APB_register_file/explicit/tb//apb_rf_scb.svh(25) @ 745: uvm_test_top.rf_env_h.rf_scb [apb_rf_scb] input data is stored in to 4790e673
# UVM_INFO E:/UVM/APB_register_file/explicit/tb/seq_lib//reg_seq_write_read_to.svh(33) @ 770: uvm_test_top.rf_env_h.rf_agent_h.rf_sqr@@seq_1 [After read timer_0 reg] timer_0_reg = 4790e673
# timer_y2r = 73
# timer_r2g = e6
# timer_g2y = 479
# read_out = 4790e673
# UVM_INFO E:/UVM/APB_register_file/explicit/tb//apb_rf_scb.svh(15) @ 785: uvm_test_top.rf_env_h.rf_scb [apb_rf_scb] data rcvd from mon_port, wr_enb =0, addr =4, din =4790e673, dout =4790e673
# UVM_INFO E:/UVM/APB_register_file/explicit/tb//apb_rf_scb.svh(47) @ 785: uvm_test_top.rf_env_h.rf_scb [PASSED] ==== TEST IS PASSED ====
# UVM_INFO E:/UVM/APB_register_file/explicit/tb//apb_rf_scb.svh(64) @ 785: uvm_test_top.rf_env_h.rf_scb [apb_rf_scb] output data is 4790e673
# UVM_INFO E:/UVM/APB_register_file/explicit/tb/seq_lib//reg_seq_write_to.svh(20) @ 810: uvm_test_top.rf_env_h.rf_agent_h.rf_sqr@@seq_2 [After Write timer_0 reg] timer_0_reg = 4790e673
# timer_y2r = 73
# timer_r2g = e6
# timer_g2y = 479
# 
# UVM_INFO E:/UVM/APB_register_file/explicit/tb//apb_rf_scb.svh(15) @ 825: uvm_test_top.rf_env_h.rf_scb [apb_rf_scb] data rcvd from mon_port, wr_enb =1, addr =4, din =d, dout =0
# UVM_INFO E:/UVM/APB_register_file/explicit/tb//apb_rf_scb.svh(25) @ 825: uvm_test_top.rf_env_h.rf_scb [apb_rf_scb] input data is stored in to d
# UVM_INFO E:/UVM/APB_register_file/explicit/tb/seq_lib//reg_seq_read_to.svh(19) @ 850: uvm_test_top.rf_env_h.rf_agent_h.rf_sqr@@seq_3 [After read timer_0 reg] timer_0_reg = d
# timer_y2r = d
# timer_r2g = 0
# timer_g2y = 0
# read_out = d
# UVM_INFO E:/UVM/APB_register_file/explicit/tb/seq_lib//reg_seq_write_read_to.svh(18) @ 850: uvm_test_top.rf_env_h.rf_agent_h.rf_sqr@@seq_1 [Initial timer_0 reg] timer_0_reg = cafe1234
# timer_y2r = 34
# timer_r2g = e12
# timer_g2y = caf
# 
# UVM_INFO E:/UVM/APB_register_file/explicit/tb//apb_rf_scb.svh(15) @ 865: uvm_test_top.rf_env_h.rf_scb [apb_rf_scb] data rcvd from mon_port, wr_enb =0, addr =4, din =d, dout =d
# UVM_INFO E:/UVM/APB_register_file/explicit/tb//apb_rf_scb.svh(47) @ 865: uvm_test_top.rf_env_h.rf_scb [PASSED] ==== TEST IS PASSED ====
# UVM_INFO E:/UVM/APB_register_file/explicit/tb//apb_rf_scb.svh(64) @ 865: uvm_test_top.rf_env_h.rf_scb [apb_rf_scb] output data is d
# UVM_INFO E:/UVM/APB_register_file/explicit/tb/seq_lib//reg_seq_write_read_to.svh(26) @ 890: uvm_test_top.rf_env_h.rf_agent_h.rf_sqr@@seq_1 [After Write timer_0 reg] timer_0_reg = d
# timer_y2r = d
# timer_r2g = 0
# timer_g2y = 0
# 
# UVM_INFO E:/UVM/APB_register_file/explicit/tb//apb_rf_scb.svh(15) @ 905: uvm_test_top.rf_env_h.rf_scb [apb_rf_scb] data rcvd from mon_port, wr_enb =1, addr =4, din =551bbbd9, dout =0
# UVM_INFO E:/UVM/APB_register_file/explicit/tb//apb_rf_scb.svh(25) @ 905: uvm_test_top.rf_env_h.rf_scb [apb_rf_scb] input data is stored in to 551bbbd9
# UVM_INFO E:/UVM/APB_register_file/explicit/tb/seq_lib//reg_seq_write_read_to.svh(33) @ 930: uvm_test_top.rf_env_h.rf_agent_h.rf_sqr@@seq_1 [After read timer_0 reg] timer_0_reg = 551bbbd9
# timer_y2r = d9
# timer_r2g = bbb
# timer_g2y = 551
# read_out = 551bbbd9
# UVM_INFO E:/UVM/APB_register_file/explicit/tb//apb_rf_scb.svh(15) @ 945: uvm_test_top.rf_env_h.rf_scb [apb_rf_scb] data rcvd from mon_port, wr_enb =0, addr =4, din =551bbbd9, dout =551bbbd9
# UVM_INFO E:/UVM/APB_register_file/explicit/tb//apb_rf_scb.svh(47) @ 945: uvm_test_top.rf_env_h.rf_scb [PASSED] ==== TEST IS PASSED ====
# UVM_INFO E:/UVM/APB_register_file/explicit/tb//apb_rf_scb.svh(64) @ 945: uvm_test_top.rf_env_h.rf_scb [apb_rf_scb] output data is 551bbbd9
# UVM_INFO E:/UVM/APB_register_file/explicit/tb/seq_lib//reg_seq_write_to.svh(20) @ 970: uvm_test_top.rf_env_h.rf_agent_h.rf_sqr@@seq_2 [After Write timer_0 reg] timer_0_reg = 551bbbd9
# timer_y2r = d9
# timer_r2g = bbb
# timer_g2y = 551
# 
# UVM_INFO E:/UVM/APB_register_file/explicit/tb//apb_rf_scb.svh(15) @ 985: uvm_test_top.rf_env_h.rf_scb [apb_rf_scb] data rcvd from mon_port, wr_enb =1, addr =4, din =16, dout =0
# UVM_INFO E:/UVM/APB_register_file/explicit/tb//apb_rf_scb.svh(25) @ 985: uvm_test_top.rf_env_h.rf_scb [apb_rf_scb] input data is stored in to 16
# UVM_INFO E:/UVM/APB_register_file/explicit/tb/seq_lib//reg_seq_read_to.svh(19) @ 1010: uvm_test_top.rf_env_h.rf_agent_h.rf_sqr@@seq_3 [After read timer_0 reg] timer_0_reg = 16
# timer_y2r = 16
# timer_r2g = 0
# timer_g2y = 0
# read_out = 16
# UVM_INFO E:/UVM/APB_register_file/explicit/tb/seq_lib//reg_seq_write_read_to.svh(18) @ 1010: uvm_test_top.rf_env_h.rf_agent_h.rf_sqr@@seq_1 [Initial timer_0 reg] timer_0_reg = cafe1234
# timer_y2r = 34
# timer_r2g = e12
# timer_g2y = caf
# 
# UVM_INFO E:/UVM/APB_register_file/explicit/tb//apb_rf_scb.svh(15) @ 1025: uvm_test_top.rf_env_h.rf_scb [apb_rf_scb] data rcvd from mon_port, wr_enb =0, addr =4, din =16, dout =16
# UVM_INFO E:/UVM/APB_register_file/explicit/tb//apb_rf_scb.svh(47) @ 1025: uvm_test_top.rf_env_h.rf_scb [PASSED] ==== TEST IS PASSED ====
# UVM_INFO E:/UVM/APB_register_file/explicit/tb//apb_rf_scb.svh(64) @ 1025: uvm_test_top.rf_env_h.rf_scb [apb_rf_scb] output data is 16
# UVM_INFO E:/UVM/APB_register_file/explicit/tb/seq_lib//reg_seq_write_read_to.svh(26) @ 1050: uvm_test_top.rf_env_h.rf_agent_h.rf_sqr@@seq_1 [After Write timer_0 reg] timer_0_reg = 16
# timer_y2r = 16
# timer_r2g = 0
# timer_g2y = 0
# 
# UVM_INFO E:/UVM/APB_register_file/explicit/tb//apb_rf_scb.svh(15) @ 1065: uvm_test_top.rf_env_h.rf_scb [apb_rf_scb] data rcvd from mon_port, wr_enb =1, addr =4, din =415e893e, dout =0
# UVM_INFO E:/UVM/APB_register_file/explicit/tb//apb_rf_scb.svh(25) @ 1065: uvm_test_top.rf_env_h.rf_scb [apb_rf_scb] input data is stored in to 415e893e
# UVM_INFO E:/UVM/APB_register_file/explicit/tb/seq_lib//reg_seq_write_read_to.svh(33) @ 1090: uvm_test_top.rf_env_h.rf_agent_h.rf_sqr@@seq_1 [After read timer_0 reg] timer_0_reg = 415e893e
# timer_y2r = 3e
# timer_r2g = e89
# timer_g2y = 415
# read_out = 415e893e
# UVM_INFO E:/UVM/APB_register_file/explicit/tb//apb_rf_scb.svh(15) @ 1105: uvm_test_top.rf_env_h.rf_scb [apb_rf_scb] data rcvd from mon_port, wr_enb =0, addr =4, din =415e893e, dout =415e893e
# UVM_INFO E:/UVM/APB_register_file/explicit/tb//apb_rf_scb.svh(47) @ 1105: uvm_test_top.rf_env_h.rf_scb [PASSED] ==== TEST IS PASSED ====
# UVM_INFO E:/UVM/APB_register_file/explicit/tb//apb_rf_scb.svh(64) @ 1105: uvm_test_top.rf_env_h.rf_scb [apb_rf_scb] output data is 415e893e
# UVM_INFO E:/UVM/APB_register_file/explicit/tb/seq_lib//reg_seq_write_to.svh(20) @ 1130: uvm_test_top.rf_env_h.rf_agent_h.rf_sqr@@seq_2 [After Write timer_0 reg] timer_0_reg = 415e893e
# timer_y2r = 3e
# timer_r2g = e89
# timer_g2y = 415
# 
# UVM_INFO E:/UVM/APB_register_file/explicit/tb//apb_rf_scb.svh(15) @ 1145: uvm_test_top.rf_env_h.rf_scb [apb_rf_scb] data rcvd from mon_port, wr_enb =1, addr =4, din =1e, dout =0
# UVM_INFO E:/UVM/APB_register_file/explicit/tb//apb_rf_scb.svh(25) @ 1145: uvm_test_top.rf_env_h.rf_scb [apb_rf_scb] input data is stored in to 1e
# UVM_INFO E:/UVM/APB_register_file/explicit/tb/seq_lib//reg_seq_read_to.svh(19) @ 1170: uvm_test_top.rf_env_h.rf_agent_h.rf_sqr@@seq_3 [After read timer_0 reg] timer_0_reg = 1e
# timer_y2r = 1e
# timer_r2g = 0
# timer_g2y = 0
# read_out = 1e
# UVM_INFO E:/UVM/APB_register_file/explicit/tb/seq_lib//reg_seq_write_read_to.svh(18) @ 1170: uvm_test_top.rf_env_h.rf_agent_h.rf_sqr@@seq_1 [Initial timer_0 reg] timer_0_reg = cafe1234
# timer_y2r = 34
# timer_r2g = e12
# timer_g2y = caf
# 
# UVM_INFO E:/UVM/APB_register_file/explicit/tb//apb_rf_scb.svh(15) @ 1185: uvm_test_top.rf_env_h.rf_scb [apb_rf_scb] data rcvd from mon_port, wr_enb =0, addr =4, din =1e, dout =1e
# UVM_INFO E:/UVM/APB_register_file/explicit/tb//apb_rf_scb.svh(47) @ 1185: uvm_test_top.rf_env_h.rf_scb [PASSED] ==== TEST IS PASSED ====
# UVM_INFO E:/UVM/APB_register_file/explicit/tb//apb_rf_scb.svh(64) @ 1185: uvm_test_top.rf_env_h.rf_scb [apb_rf_scb] output data is 1e
# UVM_INFO E:/UVM/APB_register_file/explicit/tb/seq_lib//reg_seq_write_read_to.svh(26) @ 1210: uvm_test_top.rf_env_h.rf_agent_h.rf_sqr@@seq_1 [After Write timer_0 reg] timer_0_reg = 1e
# timer_y2r = 1e
# timer_r2g = 0
# timer_g2y = 0
# 
# UVM_INFO E:/UVM/APB_register_file/explicit/tb//apb_rf_scb.svh(15) @ 1225: uvm_test_top.rf_env_h.rf_scb [apb_rf_scb] data rcvd from mon_port, wr_enb =1, addr =4, din =8f8ec18b, dout =0
# UVM_INFO E:/UVM/APB_register_file/explicit/tb//apb_rf_scb.svh(25) @ 1225: uvm_test_top.rf_env_h.rf_scb [apb_rf_scb] input data is stored in to 8f8ec18b
# UVM_INFO E:/UVM/APB_register_file/explicit/tb/seq_lib//reg_seq_write_read_to.svh(33) @ 1250: uvm_test_top.rf_env_h.rf_agent_h.rf_sqr@@seq_1 [After read timer_0 reg] timer_0_reg = 8f8ec18b
# timer_y2r = 8b
# timer_r2g = ec1
# timer_g2y = 8f8
# read_out = 8f8ec18b
# UVM_INFO E:/UVM/APB_register_file/explicit/tb//apb_rf_scb.svh(15) @ 1265: uvm_test_top.rf_env_h.rf_scb [apb_rf_scb] data rcvd from mon_port, wr_enb =0, addr =4, din =8f8ec18b, dout =8f8ec18b
# UVM_INFO E:/UVM/APB_register_file/explicit/tb//apb_rf_scb.svh(47) @ 1265: uvm_test_top.rf_env_h.rf_scb [PASSED] ==== TEST IS PASSED ====
# UVM_INFO E:/UVM/APB_register_file/explicit/tb//apb_rf_scb.svh(64) @ 1265: uvm_test_top.rf_env_h.rf_scb [apb_rf_scb] output data is 8f8ec18b
# UVM_INFO E:/UVM/APB_register_file/explicit/tb/seq_lib//reg_seq_write_to.svh(20) @ 1290: uvm_test_top.rf_env_h.rf_agent_h.rf_sqr@@seq_2 [After Write timer_0 reg] timer_0_reg = 8f8ec18b
# timer_y2r = 8b
# timer_r2g = ec1
# timer_g2y = 8f8
# 
# UVM_INFO E:/UVM/APB_register_file/explicit/tb//apb_rf_scb.svh(15) @ 1305: uvm_test_top.rf_env_h.rf_scb [apb_rf_scb] data rcvd from mon_port, wr_enb =1, addr =4, din =13, dout =0
# UVM_INFO E:/UVM/APB_register_file/explicit/tb//apb_rf_scb.svh(25) @ 1305: uvm_test_top.rf_env_h.rf_scb [apb_rf_scb] input data is stored in to 13
# UVM_INFO E:/UVM/APB_register_file/explicit/tb/seq_lib//reg_seq_read_to.svh(19) @ 1330: uvm_test_top.rf_env_h.rf_agent_h.rf_sqr@@seq_3 [After read timer_0 reg] timer_0_reg = 13
# timer_y2r = 13
# timer_r2g = 0
# timer_g2y = 0
# read_out = 13
# UVM_INFO E:/UVM/APB_register_file/explicit/tb/seq_lib//reg_seq_write_read_to.svh(18) @ 1330: uvm_test_top.rf_env_h.rf_agent_h.rf_sqr@@seq_1 [Initial timer_0 reg] timer_0_reg = cafe1234
# timer_y2r = 34
# timer_r2g = e12
# timer_g2y = caf
# 
# UVM_INFO E:/UVM/APB_register_file/explicit/tb//apb_rf_scb.svh(15) @ 1345: uvm_test_top.rf_env_h.rf_scb [apb_rf_scb] data rcvd from mon_port, wr_enb =0, addr =4, din =13, dout =13
# UVM_INFO E:/UVM/APB_register_file/explicit/tb//apb_rf_scb.svh(47) @ 1345: uvm_test_top.rf_env_h.rf_scb [PASSED] ==== TEST IS PASSED ====
# UVM_INFO E:/UVM/APB_register_file/explicit/tb//apb_rf_scb.svh(64) @ 1345: uvm_test_top.rf_env_h.rf_scb [apb_rf_scb] output data is 13
# UVM_INFO E:/UVM/APB_register_file/explicit/tb/seq_lib//reg_seq_write_read_to.svh(26) @ 1370: uvm_test_top.rf_env_h.rf_agent_h.rf_sqr@@seq_1 [After Write timer_0 reg] timer_0_reg = 13
# timer_y2r = 13
# timer_r2g = 0
# timer_g2y = 0
# 
# UVM_INFO E:/UVM/APB_register_file/explicit/tb//apb_rf_scb.svh(15) @ 1385: uvm_test_top.rf_env_h.rf_scb [apb_rf_scb] data rcvd from mon_port, wr_enb =1, addr =4, din =65085470, dout =0
# UVM_INFO E:/UVM/APB_register_file/explicit/tb//apb_rf_scb.svh(25) @ 1385: uvm_test_top.rf_env_h.rf_scb [apb_rf_scb] input data is stored in to 65085470
# UVM_INFO E:/UVM/APB_register_file/explicit/tb/seq_lib//reg_seq_write_read_to.svh(33) @ 1410: uvm_test_top.rf_env_h.rf_agent_h.rf_sqr@@seq_1 [After read timer_0 reg] timer_0_reg = 65085470
# timer_y2r = 70
# timer_r2g = 854
# timer_g2y = 650
# read_out = 65085470
# UVM_INFO E:/UVM/APB_register_file/explicit/tb//apb_rf_scb.svh(15) @ 1425: uvm_test_top.rf_env_h.rf_scb [apb_rf_scb] data rcvd from mon_port, wr_enb =0, addr =4, din =65085470, dout =65085470
# UVM_INFO E:/UVM/APB_register_file/explicit/tb//apb_rf_scb.svh(47) @ 1425: uvm_test_top.rf_env_h.rf_scb [PASSED] ==== TEST IS PASSED ====
# UVM_INFO E:/UVM/APB_register_file/explicit/tb//apb_rf_scb.svh(64) @ 1425: uvm_test_top.rf_env_h.rf_scb [apb_rf_scb] output data is 65085470
# UVM_INFO E:/UVM/APB_register_file/explicit/tb/seq_lib//reg_seq_write_to.svh(20) @ 1450: uvm_test_top.rf_env_h.rf_agent_h.rf_sqr@@seq_2 [After Write timer_0 reg] timer_0_reg = 65085470
# timer_y2r = 70
# timer_r2g = 854
# timer_g2y = 650
# 
# UVM_INFO E:/UVM/APB_register_file/explicit/tb//apb_rf_scb.svh(15) @ 1465: uvm_test_top.rf_env_h.rf_scb [apb_rf_scb] data rcvd from mon_port, wr_enb =1, addr =4, din =4, dout =0
# UVM_INFO E:/UVM/APB_register_file/explicit/tb//apb_rf_scb.svh(25) @ 1465: uvm_test_top.rf_env_h.rf_scb [apb_rf_scb] input data is stored in to 4
# UVM_INFO E:/UVM/APB_register_file/explicit/tb/seq_lib//reg_seq_read_to.svh(19) @ 1490: uvm_test_top.rf_env_h.rf_agent_h.rf_sqr@@seq_3 [After read timer_0 reg] timer_0_reg = 4
# timer_y2r = 4
# timer_r2g = 0
# timer_g2y = 0
# read_out = 4
# UVM_INFO E:/UVM/APB_register_file/explicit/tb/seq_lib//reg_seq_write_read_to.svh(18) @ 1490: uvm_test_top.rf_env_h.rf_agent_h.rf_sqr@@seq_1 [Initial timer_0 reg] timer_0_reg = cafe1234
# timer_y2r = 34
# timer_r2g = e12
# timer_g2y = caf
# 
# UVM_INFO E:/UVM/APB_register_file/explicit/tb//apb_rf_scb.svh(15) @ 1505: uvm_test_top.rf_env_h.rf_scb [apb_rf_scb] data rcvd from mon_port, wr_enb =0, addr =4, din =4, dout =4
# UVM_INFO E:/UVM/APB_register_file/explicit/tb//apb_rf_scb.svh(47) @ 1505: uvm_test_top.rf_env_h.rf_scb [PASSED] ==== TEST IS PASSED ====
# UVM_INFO E:/UVM/APB_register_file/explicit/tb//apb_rf_scb.svh(64) @ 1505: uvm_test_top.rf_env_h.rf_scb [apb_rf_scb] output data is 4
# UVM_INFO E:/UVM/APB_register_file/explicit/tb/seq_lib//reg_seq_write_read_to.svh(26) @ 1530: uvm_test_top.rf_env_h.rf_agent_h.rf_sqr@@seq_1 [After Write timer_0 reg] timer_0_reg = 4
# timer_y2r = 4
# timer_r2g = 0
# timer_g2y = 0
# 
# UVM_INFO E:/UVM/APB_register_file/explicit/tb//apb_rf_scb.svh(15) @ 1545: uvm_test_top.rf_env_h.rf_scb [apb_rf_scb] data rcvd from mon_port, wr_enb =1, addr =4, din =69ceaddd, dout =0
# UVM_INFO E:/UVM/APB_register_file/explicit/tb//apb_rf_scb.svh(25) @ 1545: uvm_test_top.rf_env_h.rf_scb [apb_rf_scb] input data is stored in to 69ceaddd
# UVM_INFO E:/UVM/APB_register_file/explicit/tb/seq_lib//reg_seq_write_read_to.svh(33) @ 1570: uvm_test_top.rf_env_h.rf_agent_h.rf_sqr@@seq_1 [After read timer_0 reg] timer_0_reg = 69ceaddd
# timer_y2r = dd
# timer_r2g = ead
# timer_g2y = 69c
# read_out = 69ceaddd
# UVM_INFO E:/UVM/APB_register_file/explicit/tb//apb_rf_scb.svh(15) @ 1585: uvm_test_top.rf_env_h.rf_scb [apb_rf_scb] data rcvd from mon_port, wr_enb =0, addr =4, din =69ceaddd, dout =69ceaddd
# UVM_INFO E:/UVM/APB_register_file/explicit/tb//apb_rf_scb.svh(47) @ 1585: uvm_test_top.rf_env_h.rf_scb [PASSED] ==== TEST IS PASSED ====
# UVM_INFO E:/UVM/APB_register_file/explicit/tb//apb_rf_scb.svh(64) @ 1585: uvm_test_top.rf_env_h.rf_scb [apb_rf_scb] output data is 69ceaddd
# UVM_INFO E:/UVM/APB_register_file/explicit/tb/seq_lib//reg_seq_write_to.svh(20) @ 1610: uvm_test_top.rf_env_h.rf_agent_h.rf_sqr@@seq_2 [After Write timer_0 reg] timer_0_reg = 69ceaddd
# timer_y2r = dd
# timer_r2g = ead
# timer_g2y = 69c
# 
# UVM_INFO E:/UVM/APB_register_file/explicit/tb//apb_rf_scb.svh(15) @ 1625: uvm_test_top.rf_env_h.rf_scb [apb_rf_scb] data rcvd from mon_port, wr_enb =1, addr =4, din =9, dout =0
# UVM_INFO E:/UVM/APB_register_file/explicit/tb//apb_rf_scb.svh(25) @ 1625: uvm_test_top.rf_env_h.rf_scb [apb_rf_scb] input data is stored in to 9
# UVM_INFO E:/UVM/APB_register_file/explicit/tb/seq_lib//reg_seq_read_to.svh(19) @ 1650: uvm_test_top.rf_env_h.rf_agent_h.rf_sqr@@seq_3 [After read timer_0 reg] timer_0_reg = 9
# timer_y2r = 9
# timer_r2g = 0
# timer_g2y = 0
# read_out = 9
# UVM_INFO E:/UVM/APB_register_file/explicit/tb/seq_lib//reg_seq_write_read_to.svh(18) @ 1650: uvm_test_top.rf_env_h.rf_agent_h.rf_sqr@@seq_1 [Initial timer_0 reg] timer_0_reg = cafe1234
# timer_y2r = 34
# timer_r2g = e12
# timer_g2y = caf
# 
# UVM_INFO E:/UVM/APB_register_file/explicit/tb//apb_rf_scb.svh(15) @ 1665: uvm_test_top.rf_env_h.rf_scb [apb_rf_scb] data rcvd from mon_port, wr_enb =0, addr =4, din =9, dout =9
# UVM_INFO E:/UVM/APB_register_file/explicit/tb//apb_rf_scb.svh(47) @ 1665: uvm_test_top.rf_env_h.rf_scb [PASSED] ==== TEST IS PASSED ====
# UVM_INFO E:/UVM/APB_register_file/explicit/tb//apb_rf_scb.svh(64) @ 1665: uvm_test_top.rf_env_h.rf_scb [apb_rf_scb] output data is 9
# UVM_INFO E:/UVM/APB_register_file/explicit/tb/seq_lib//reg_seq_write_read_to.svh(26) @ 1690: uvm_test_top.rf_env_h.rf_agent_h.rf_sqr@@seq_1 [After Write timer_0 reg] timer_0_reg = 9
# timer_y2r = 9
# timer_r2g = 0
# timer_g2y = 0
# 
# UVM_INFO E:/UVM/APB_register_file/explicit/tb//apb_rf_scb.svh(15) @ 1705: uvm_test_top.rf_env_h.rf_scb [apb_rf_scb] data rcvd from mon_port, wr_enb =1, addr =4, din =3397c51f, dout =0
# UVM_INFO E:/UVM/APB_register_file/explicit/tb//apb_rf_scb.svh(25) @ 1705: uvm_test_top.rf_env_h.rf_scb [apb_rf_scb] input data is stored in to 3397c51f
# UVM_INFO E:/UVM/APB_register_file/explicit/tb/seq_lib//reg_seq_write_read_to.svh(33) @ 1730: uvm_test_top.rf_env_h.rf_agent_h.rf_sqr@@seq_1 [After read timer_0 reg] timer_0_reg = 3397c51f
# timer_y2r = 1f
# timer_r2g = 7c5
# timer_g2y = 339
# read_out = 3397c51f
# UVM_INFO E:/UVM/APB_register_file/explicit/tb//apb_rf_scb.svh(15) @ 1745: uvm_test_top.rf_env_h.rf_scb [apb_rf_scb] data rcvd from mon_port, wr_enb =0, addr =4, din =3397c51f, dout =3397c51f
# UVM_INFO E:/UVM/APB_register_file/explicit/tb//apb_rf_scb.svh(47) @ 1745: uvm_test_top.rf_env_h.rf_scb [PASSED] ==== TEST IS PASSED ====
# UVM_INFO E:/UVM/APB_register_file/explicit/tb//apb_rf_scb.svh(64) @ 1745: uvm_test_top.rf_env_h.rf_scb [apb_rf_scb] output data is 3397c51f
# UVM_INFO E:/UVM/APB_register_file/explicit/tb/seq_lib//reg_seq_write_to.svh(20) @ 1770: uvm_test_top.rf_env_h.rf_agent_h.rf_sqr@@seq_2 [After Write timer_0 reg] timer_0_reg = 3397c51f
# timer_y2r = 1f
# timer_r2g = 7c5
# timer_g2y = 339
# 
# UVM_INFO E:/UVM/APB_register_file/explicit/tb//apb_rf_scb.svh(15) @ 1785: uvm_test_top.rf_env_h.rf_scb [apb_rf_scb] data rcvd from mon_port, wr_enb =1, addr =4, din =b, dout =0
# UVM_INFO E:/UVM/APB_register_file/explicit/tb//apb_rf_scb.svh(25) @ 1785: uvm_test_top.rf_env_h.rf_scb [apb_rf_scb] input data is stored in to b
# UVM_INFO E:/UVM/APB_register_file/explicit/tb/seq_lib//reg_seq_read_to.svh(19) @ 1810: uvm_test_top.rf_env_h.rf_agent_h.rf_sqr@@seq_3 [After read timer_0 reg] timer_0_reg = b
# timer_y2r = b
# timer_r2g = 0
# timer_g2y = 0
# read_out = b
# UVM_INFO E:/UVM/APB_register_file/explicit/tb/seq_lib//reg_seq_write_read_to.svh(18) @ 1810: uvm_test_top.rf_env_h.rf_agent_h.rf_sqr@@seq_1 [Initial timer_0 reg] timer_0_reg = cafe1234
# timer_y2r = 34
# timer_r2g = e12
# timer_g2y = caf
# 
# UVM_INFO E:/UVM/APB_register_file/explicit/tb//apb_rf_scb.svh(15) @ 1825: uvm_test_top.rf_env_h.rf_scb [apb_rf_scb] data rcvd from mon_port, wr_enb =0, addr =4, din =b, dout =b
# UVM_INFO E:/UVM/APB_register_file/explicit/tb//apb_rf_scb.svh(47) @ 1825: uvm_test_top.rf_env_h.rf_scb [PASSED] ==== TEST IS PASSED ====
# UVM_INFO E:/UVM/APB_register_file/explicit/tb//apb_rf_scb.svh(64) @ 1825: uvm_test_top.rf_env_h.rf_scb [apb_rf_scb] output data is b
# UVM_INFO E:/UVM/APB_register_file/explicit/tb/seq_lib//reg_seq_write_read_to.svh(26) @ 1850: uvm_test_top.rf_env_h.rf_agent_h.rf_sqr@@seq_1 [After Write timer_0 reg] timer_0_reg = b
# timer_y2r = b
# timer_r2g = 0
# timer_g2y = 0
# 
# UVM_INFO E:/UVM/APB_register_file/explicit/tb//apb_rf_scb.svh(15) @ 1865: uvm_test_top.rf_env_h.rf_scb [apb_rf_scb] data rcvd from mon_port, wr_enb =1, addr =4, din =67df1132, dout =0
# UVM_INFO E:/UVM/APB_register_file/explicit/tb//apb_rf_scb.svh(25) @ 1865: uvm_test_top.rf_env_h.rf_scb [apb_rf_scb] input data is stored in to 67df1132
# UVM_INFO E:/UVM/APB_register_file/explicit/tb/seq_lib//reg_seq_write_read_to.svh(33) @ 1890: uvm_test_top.rf_env_h.rf_agent_h.rf_sqr@@seq_1 [After read timer_0 reg] timer_0_reg = 67df1132
# timer_y2r = 32
# timer_r2g = f11
# timer_g2y = 67d
# read_out = 67df1132
# UVM_INFO E:/UVM/APB_register_file/explicit/tb//apb_rf_scb.svh(15) @ 1905: uvm_test_top.rf_env_h.rf_scb [apb_rf_scb] data rcvd from mon_port, wr_enb =0, addr =4, din =67df1132, dout =67df1132
# UVM_INFO E:/UVM/APB_register_file/explicit/tb//apb_rf_scb.svh(47) @ 1905: uvm_test_top.rf_env_h.rf_scb [PASSED] ==== TEST IS PASSED ====
# UVM_INFO E:/UVM/APB_register_file/explicit/tb//apb_rf_scb.svh(64) @ 1905: uvm_test_top.rf_env_h.rf_scb [apb_rf_scb] output data is 67df1132
# UVM_INFO E:/UVM/APB_register_file/explicit/tb/seq_lib//reg_seq_write_to.svh(20) @ 1930: uvm_test_top.rf_env_h.rf_agent_h.rf_sqr@@seq_2 [After Write timer_0 reg] timer_0_reg = 67df1132
# timer_y2r = 32
# timer_r2g = f11
# timer_g2y = 67d
# 
# UVM_INFO E:/UVM/APB_register_file/explicit/tb//apb_rf_scb.svh(15) @ 1945: uvm_test_top.rf_env_h.rf_scb [apb_rf_scb] data rcvd from mon_port, wr_enb =1, addr =4, din =2, dout =0
# UVM_INFO E:/UVM/APB_register_file/explicit/tb//apb_rf_scb.svh(25) @ 1945: uvm_test_top.rf_env_h.rf_scb [apb_rf_scb] input data is stored in to 2
# UVM_INFO E:/UVM/APB_register_file/explicit/tb/seq_lib//reg_seq_read_to.svh(19) @ 1970: uvm_test_top.rf_env_h.rf_agent_h.rf_sqr@@seq_3 [After read timer_0 reg] timer_0_reg = 2
# timer_y2r = 2
# timer_r2g = 0
# timer_g2y = 0
# read_out = 2
# UVM_INFO E:/UVM/APB_register_file/explicit/tb/seq_lib//reg_seq_write_read_to.svh(18) @ 1970: uvm_test_top.rf_env_h.rf_agent_h.rf_sqr@@seq_1 [Initial timer_0 reg] timer_0_reg = cafe1234
# timer_y2r = 34
# timer_r2g = e12
# timer_g2y = caf
# 
# UVM_INFO E:/UVM/APB_register_file/explicit/tb//apb_rf_scb.svh(15) @ 1985: uvm_test_top.rf_env_h.rf_scb [apb_rf_scb] data rcvd from mon_port, wr_enb =0, addr =4, din =2, dout =2
# UVM_INFO E:/UVM/APB_register_file/explicit/tb//apb_rf_scb.svh(47) @ 1985: uvm_test_top.rf_env_h.rf_scb [PASSED] ==== TEST IS PASSED ====
# UVM_INFO E:/UVM/APB_register_file/explicit/tb//apb_rf_scb.svh(64) @ 1985: uvm_test_top.rf_env_h.rf_scb [apb_rf_scb] output data is 2
# UVM_INFO E:/UVM/APB_register_file/explicit/tb/seq_lib//reg_seq_write_read_to.svh(26) @ 2010: uvm_test_top.rf_env_h.rf_agent_h.rf_sqr@@seq_1 [After Write timer_0 reg] timer_0_reg = 2
# timer_y2r = 2
# timer_r2g = 0
# timer_g2y = 0
# 
# UVM_INFO E:/UVM/APB_register_file/explicit/tb//apb_rf_scb.svh(15) @ 2025: uvm_test_top.rf_env_h.rf_scb [apb_rf_scb] data rcvd from mon_port, wr_enb =1, addr =4, din =c739ae3b, dout =0
# UVM_INFO E:/UVM/APB_register_file/explicit/tb//apb_rf_scb.svh(25) @ 2025: uvm_test_top.rf_env_h.rf_scb [apb_rf_scb] input data is stored in to c739ae3b
# UVM_INFO E:/UVM/APB_register_file/explicit/tb/seq_lib//reg_seq_write_read_to.svh(33) @ 2050: uvm_test_top.rf_env_h.rf_agent_h.rf_sqr@@seq_1 [After read timer_0 reg] timer_0_reg = c739ae3b
# timer_y2r = 3b
# timer_r2g = 9ae
# timer_g2y = c73
# read_out = c739ae3b
# UVM_INFO E:/UVM/APB_register_file/explicit/tb//apb_rf_scb.svh(15) @ 2065: uvm_test_top.rf_env_h.rf_scb [apb_rf_scb] data rcvd from mon_port, wr_enb =0, addr =4, din =c739ae3b, dout =c739ae3b
# UVM_INFO E:/UVM/APB_register_file/explicit/tb//apb_rf_scb.svh(47) @ 2065: uvm_test_top.rf_env_h.rf_scb [PASSED] ==== TEST IS PASSED ====
# UVM_INFO E:/UVM/APB_register_file/explicit/tb//apb_rf_scb.svh(64) @ 2065: uvm_test_top.rf_env_h.rf_scb [apb_rf_scb] output data is c739ae3b
# UVM_INFO E:/UVM/APB_register_file/explicit/tb/seq_lib//reg_seq_write_to.svh(20) @ 2090: uvm_test_top.rf_env_h.rf_agent_h.rf_sqr@@seq_2 [After Write timer_0 reg] timer_0_reg = c739ae3b
# timer_y2r = 3b
# timer_r2g = 9ae
# timer_g2y = c73
# 
# UVM_INFO E:/UVM/APB_register_file/explicit/tb//apb_rf_scb.svh(15) @ 2105: uvm_test_top.rf_env_h.rf_scb [apb_rf_scb] data rcvd from mon_port, wr_enb =1, addr =4, din =6, dout =0
# UVM_INFO E:/UVM/APB_register_file/explicit/tb//apb_rf_scb.svh(25) @ 2105: uvm_test_top.rf_env_h.rf_scb [apb_rf_scb] input data is stored in to 6
# UVM_INFO E:/UVM/APB_register_file/explicit/tb/seq_lib//reg_seq_read_to.svh(19) @ 2130: uvm_test_top.rf_env_h.rf_agent_h.rf_sqr@@seq_3 [After read timer_0 reg] timer_0_reg = 6
# timer_y2r = 6
# timer_r2g = 0
# timer_g2y = 0
# read_out = 6
# UVM_INFO E:/UVM/APB_register_file/explicit/tb/seq_lib//reg_seq_write_read_to.svh(18) @ 2130: uvm_test_top.rf_env_h.rf_agent_h.rf_sqr@@seq_1 [Initial timer_0 reg] timer_0_reg = cafe1234
# timer_y2r = 34
# timer_r2g = e12
# timer_g2y = caf
# 
# UVM_INFO E:/UVM/APB_register_file/explicit/tb//apb_rf_scb.svh(15) @ 2145: uvm_test_top.rf_env_h.rf_scb [apb_rf_scb] data rcvd from mon_port, wr_enb =0, addr =4, din =6, dout =6
# UVM_INFO E:/UVM/APB_register_file/explicit/tb//apb_rf_scb.svh(47) @ 2145: uvm_test_top.rf_env_h.rf_scb [PASSED] ==== TEST IS PASSED ====
# UVM_INFO E:/UVM/APB_register_file/explicit/tb//apb_rf_scb.svh(64) @ 2145: uvm_test_top.rf_env_h.rf_scb [apb_rf_scb] output data is 6
# UVM_INFO E:/UVM/APB_register_file/explicit/tb/seq_lib//reg_seq_write_read_to.svh(26) @ 2170: uvm_test_top.rf_env_h.rf_agent_h.rf_sqr@@seq_1 [After Write timer_0 reg] timer_0_reg = 6
# timer_y2r = 6
# timer_r2g = 0
# timer_g2y = 0
# 
# UVM_INFO E:/UVM/APB_register_file/explicit/tb//apb_rf_scb.svh(15) @ 2185: uvm_test_top.rf_env_h.rf_scb [apb_rf_scb] data rcvd from mon_port, wr_enb =1, addr =4, din =77b65a8c, dout =0
# UVM_INFO E:/UVM/APB_register_file/explicit/tb//apb_rf_scb.svh(25) @ 2185: uvm_test_top.rf_env_h.rf_scb [apb_rf_scb] input data is stored in to 77b65a8c
# UVM_INFO E:/UVM/APB_register_file/explicit/tb/seq_lib//reg_seq_write_read_to.svh(33) @ 2210: uvm_test_top.rf_env_h.rf_agent_h.rf_sqr@@seq_1 [After read timer_0 reg] timer_0_reg = 77b65a8c
# timer_y2r = 8c
# timer_r2g = 65a
# timer_g2y = 77b
# read_out = 77b65a8c
# UVM_INFO E:/UVM/APB_register_file/explicit/tb//apb_rf_scb.svh(15) @ 2225: uvm_test_top.rf_env_h.rf_scb [apb_rf_scb] data rcvd from mon_port, wr_enb =0, addr =4, din =77b65a8c, dout =77b65a8c
# UVM_INFO E:/UVM/APB_register_file/explicit/tb//apb_rf_scb.svh(47) @ 2225: uvm_test_top.rf_env_h.rf_scb [PASSED] ==== TEST IS PASSED ====
# UVM_INFO E:/UVM/APB_register_file/explicit/tb//apb_rf_scb.svh(64) @ 2225: uvm_test_top.rf_env_h.rf_scb [apb_rf_scb] output data is 77b65a8c
# UVM_INFO E:/UVM/APB_register_file/explicit/tb/seq_lib//reg_seq_write_to.svh(20) @ 2250: uvm_test_top.rf_env_h.rf_agent_h.rf_sqr@@seq_2 [After Write timer_0 reg] timer_0_reg = 77b65a8c
# timer_y2r = 8c
# timer_r2g = 65a
# timer_g2y = 77b
# 
# UVM_INFO E:/UVM/APB_register_file/explicit/tb//apb_rf_scb.svh(15) @ 2265: uvm_test_top.rf_env_h.rf_scb [apb_rf_scb] data rcvd from mon_port, wr_enb =1, addr =4, din =10, dout =0
# UVM_INFO E:/UVM/APB_register_file/explicit/tb//apb_rf_scb.svh(25) @ 2265: uvm_test_top.rf_env_h.rf_scb [apb_rf_scb] input data is stored in to 10
# UVM_INFO E:/UVM/APB_register_file/explicit/tb/seq_lib//reg_seq_read_to.svh(19) @ 2290: uvm_test_top.rf_env_h.rf_agent_h.rf_sqr@@seq_3 [After read timer_0 reg] timer_0_reg = 10
# timer_y2r = 10
# timer_r2g = 0
# timer_g2y = 0
# read_out = 10
# UVM_INFO E:/UVM/APB_register_file/explicit/tb/seq_lib//reg_seq_write_read_to.svh(18) @ 2290: uvm_test_top.rf_env_h.rf_agent_h.rf_sqr@@seq_1 [Initial timer_0 reg] timer_0_reg = cafe1234
# timer_y2r = 34
# timer_r2g = e12
# timer_g2y = caf
# 
# UVM_INFO E:/UVM/APB_register_file/explicit/tb//apb_rf_scb.svh(15) @ 2305: uvm_test_top.rf_env_h.rf_scb [apb_rf_scb] data rcvd from mon_port, wr_enb =0, addr =4, din =10, dout =10
# UVM_INFO E:/UVM/APB_register_file/explicit/tb//apb_rf_scb.svh(47) @ 2305: uvm_test_top.rf_env_h.rf_scb [PASSED] ==== TEST IS PASSED ====
# UVM_INFO E:/UVM/APB_register_file/explicit/tb//apb_rf_scb.svh(64) @ 2305: uvm_test_top.rf_env_h.rf_scb [apb_rf_scb] output data is 10
# UVM_INFO E:/UVM/APB_register_file/explicit/tb/seq_lib//reg_seq_write_read_to.svh(26) @ 2330: uvm_test_top.rf_env_h.rf_agent_h.rf_sqr@@seq_1 [After Write timer_0 reg] timer_0_reg = 10
# timer_y2r = 10
# timer_r2g = 0
# timer_g2y = 0
# 
# UVM_INFO E:/UVM/APB_register_file/explicit/tb//apb_rf_scb.svh(15) @ 2345: uvm_test_top.rf_env_h.rf_scb [apb_rf_scb] data rcvd from mon_port, wr_enb =1, addr =4, din =55b77437, dout =0
# UVM_INFO E:/UVM/APB_register_file/explicit/tb//apb_rf_scb.svh(25) @ 2345: uvm_test_top.rf_env_h.rf_scb [apb_rf_scb] input data is stored in to 55b77437
# UVM_INFO E:/UVM/APB_register_file/explicit/tb/seq_lib//reg_seq_write_read_to.svh(33) @ 2370: uvm_test_top.rf_env_h.rf_agent_h.rf_sqr@@seq_1 [After read timer_0 reg] timer_0_reg = 55b77437
# timer_y2r = 37
# timer_r2g = 774
# timer_g2y = 55b
# read_out = 55b77437
# UVM_INFO E:/UVM/APB_register_file/explicit/tb//apb_rf_scb.svh(15) @ 2385: uvm_test_top.rf_env_h.rf_scb [apb_rf_scb] data rcvd from mon_port, wr_enb =0, addr =4, din =55b77437, dout =55b77437
# UVM_INFO E:/UVM/APB_register_file/explicit/tb//apb_rf_scb.svh(47) @ 2385: uvm_test_top.rf_env_h.rf_scb [PASSED] ==== TEST IS PASSED ====
# UVM_INFO E:/UVM/APB_register_file/explicit/tb//apb_rf_scb.svh(64) @ 2385: uvm_test_top.rf_env_h.rf_scb [apb_rf_scb] output data is 55b77437
# UVM_INFO E:/UVM/APB_register_file/explicit/tb/seq_lib//reg_seq_write_to.svh(20) @ 2410: uvm_test_top.rf_env_h.rf_agent_h.rf_sqr@@seq_2 [After Write timer_0 reg] timer_0_reg = 55b77437
# timer_y2r = 37
# timer_r2g = 774
# timer_g2y = 55b
# 
# UVM_INFO E:/UVM/APB_register_file/explicit/tb//apb_rf_scb.svh(15) @ 2425: uvm_test_top.rf_env_h.rf_scb [apb_rf_scb] data rcvd from mon_port, wr_enb =1, addr =4, din =14, dout =0
# UVM_INFO E:/UVM/APB_register_file/explicit/tb//apb_rf_scb.svh(25) @ 2425: uvm_test_top.rf_env_h.rf_scb [apb_rf_scb] input data is stored in to 14
# UVM_INFO E:/UVM/APB_register_file/explicit/tb/seq_lib//reg_seq_read_to.svh(19) @ 2450: uvm_test_top.rf_env_h.rf_agent_h.rf_sqr@@seq_3 [After read timer_0 reg] timer_0_reg = 14
# timer_y2r = 14
# timer_r2g = 0
# timer_g2y = 0
# read_out = 14
# UVM_INFO E:/UVM/APB_register_file/explicit/tb/seq_lib//reg_seq_write_read_to.svh(18) @ 2450: uvm_test_top.rf_env_h.rf_agent_h.rf_sqr@@seq_1 [Initial timer_0 reg] timer_0_reg = cafe1234
# timer_y2r = 34
# timer_r2g = e12
# timer_g2y = caf
# 
# UVM_INFO E:/UVM/APB_register_file/explicit/tb//apb_rf_scb.svh(15) @ 2465: uvm_test_top.rf_env_h.rf_scb [apb_rf_scb] data rcvd from mon_port, wr_enb =0, addr =4, din =14, dout =14
# UVM_INFO E:/UVM/APB_register_file/explicit/tb//apb_rf_scb.svh(47) @ 2465: uvm_test_top.rf_env_h.rf_scb [PASSED] ==== TEST IS PASSED ====
# UVM_INFO E:/UVM/APB_register_file/explicit/tb//apb_rf_scb.svh(64) @ 2465: uvm_test_top.rf_env_h.rf_scb [apb_rf_scb] output data is 14
# UVM_INFO E:/UVM/APB_register_file/explicit/tb/seq_lib//reg_seq_write_read_to.svh(26) @ 2490: uvm_test_top.rf_env_h.rf_agent_h.rf_sqr@@seq_1 [After Write timer_0 reg] timer_0_reg = 14
# timer_y2r = 14
# timer_r2g = 0
# timer_g2y = 0
# 
# UVM_INFO E:/UVM/APB_register_file/explicit/tb//apb_rf_scb.svh(15) @ 2505: uvm_test_top.rf_env_h.rf_scb [apb_rf_scb] data rcvd from mon_port, wr_enb =1, addr =4, din =d1ee1732, dout =0
# UVM_INFO E:/UVM/APB_register_file/explicit/tb//apb_rf_scb.svh(25) @ 2505: uvm_test_top.rf_env_h.rf_scb [apb_rf_scb] input data is stored in to d1ee1732
# UVM_INFO E:/UVM/APB_register_file/explicit/tb/seq_lib//reg_seq_write_read_to.svh(33) @ 2530: uvm_test_top.rf_env_h.rf_agent_h.rf_sqr@@seq_1 [After read timer_0 reg] timer_0_reg = d1ee1732
# timer_y2r = 32
# timer_r2g = e17
# timer_g2y = d1e
# read_out = d1ee1732
# UVM_INFO E:/UVM/APB_register_file/explicit/tb//apb_rf_scb.svh(15) @ 2545: uvm_test_top.rf_env_h.rf_scb [apb_rf_scb] data rcvd from mon_port, wr_enb =0, addr =4, din =d1ee1732, dout =d1ee1732
# UVM_INFO E:/UVM/APB_register_file/explicit/tb//apb_rf_scb.svh(47) @ 2545: uvm_test_top.rf_env_h.rf_scb [PASSED] ==== TEST IS PASSED ====
# UVM_INFO E:/UVM/APB_register_file/explicit/tb//apb_rf_scb.svh(64) @ 2545: uvm_test_top.rf_env_h.rf_scb [apb_rf_scb] output data is d1ee1732
# UVM_INFO E:/UVM/APB_register_file/explicit/tb/seq_lib//reg_seq_write_to.svh(20) @ 2570: uvm_test_top.rf_env_h.rf_agent_h.rf_sqr@@seq_2 [After Write timer_0 reg] timer_0_reg = d1ee1732
# timer_y2r = 32
# timer_r2g = e17
# timer_g2y = d1e
# 
# UVM_INFO E:/UVM/APB_register_file/explicit/tb//apb_rf_scb.svh(15) @ 2585: uvm_test_top.rf_env_h.rf_scb [apb_rf_scb] data rcvd from mon_port, wr_enb =1, addr =4, din =13, dout =0
# UVM_INFO E:/UVM/APB_register_file/explicit/tb//apb_rf_scb.svh(25) @ 2585: uvm_test_top.rf_env_h.rf_scb [apb_rf_scb] input data is stored in to 13
# UVM_INFO E:/UVM/APB_register_file/explicit/tb/seq_lib//reg_seq_read_to.svh(19) @ 2610: uvm_test_top.rf_env_h.rf_agent_h.rf_sqr@@seq_3 [After read timer_0 reg] timer_0_reg = 13
# timer_y2r = 13
# timer_r2g = 0
# timer_g2y = 0
# read_out = 13
# UVM_INFO E:/UVM/APB_register_file/explicit/tb/seq_lib//reg_seq_write_read_to.svh(18) @ 2610: uvm_test_top.rf_env_h.rf_agent_h.rf_sqr@@seq_1 [Initial timer_0 reg] timer_0_reg = cafe1234
# timer_y2r = 34
# timer_r2g = e12
# timer_g2y = caf
# 
# UVM_INFO E:/UVM/APB_register_file/explicit/tb//apb_rf_scb.svh(15) @ 2625: uvm_test_top.rf_env_h.rf_scb [apb_rf_scb] data rcvd from mon_port, wr_enb =0, addr =4, din =13, dout =13
# UVM_INFO E:/UVM/APB_register_file/explicit/tb//apb_rf_scb.svh(47) @ 2625: uvm_test_top.rf_env_h.rf_scb [PASSED] ==== TEST IS PASSED ====
# UVM_INFO E:/UVM/APB_register_file/explicit/tb//apb_rf_scb.svh(64) @ 2625: uvm_test_top.rf_env_h.rf_scb [apb_rf_scb] output data is 13
# UVM_INFO E:/UVM/APB_register_file/explicit/tb/seq_lib//reg_seq_write_read_to.svh(26) @ 2650: uvm_test_top.rf_env_h.rf_agent_h.rf_sqr@@seq_1 [After Write timer_0 reg] timer_0_reg = 13
# timer_y2r = 13
# timer_r2g = 0
# timer_g2y = 0
# 
# UVM_INFO E:/UVM/APB_register_file/explicit/tb//apb_rf_scb.svh(15) @ 2665: uvm_test_top.rf_env_h.rf_scb [apb_rf_scb] data rcvd from mon_port, wr_enb =1, addr =4, din =b6908d69, dout =0
# UVM_INFO E:/UVM/APB_register_file/explicit/tb//apb_rf_scb.svh(25) @ 2665: uvm_test_top.rf_env_h.rf_scb [apb_rf_scb] input data is stored in to b6908d69
# UVM_INFO E:/UVM/APB_register_file/explicit/tb/seq_lib//reg_seq_write_read_to.svh(33) @ 2690: uvm_test_top.rf_env_h.rf_agent_h.rf_sqr@@seq_1 [After read timer_0 reg] timer_0_reg = b6908d69
# timer_y2r = 69
# timer_r2g = 8d
# timer_g2y = b69
# read_out = b6908d69
# UVM_INFO E:/UVM/APB_register_file/explicit/tb//apb_rf_scb.svh(15) @ 2705: uvm_test_top.rf_env_h.rf_scb [apb_rf_scb] data rcvd from mon_port, wr_enb =0, addr =4, din =b6908d69, dout =b6908d69
# UVM_INFO E:/UVM/APB_register_file/explicit/tb//apb_rf_scb.svh(47) @ 2705: uvm_test_top.rf_env_h.rf_scb [PASSED] ==== TEST IS PASSED ====
# UVM_INFO E:/UVM/APB_register_file/explicit/tb//apb_rf_scb.svh(64) @ 2705: uvm_test_top.rf_env_h.rf_scb [apb_rf_scb] output data is b6908d69
# UVM_INFO E:/UVM/APB_register_file/explicit/tb/seq_lib//reg_seq_write_to.svh(20) @ 2730: uvm_test_top.rf_env_h.rf_agent_h.rf_sqr@@seq_2 [After Write timer_0 reg] timer_0_reg = b6908d69
# timer_y2r = 69
# timer_r2g = 8d
# timer_g2y = b69
# 
# UVM_INFO E:/UVM/APB_register_file/explicit/tb//apb_rf_scb.svh(15) @ 2745: uvm_test_top.rf_env_h.rf_scb [apb_rf_scb] data rcvd from mon_port, wr_enb =1, addr =4, din =b, dout =0
# UVM_INFO E:/UVM/APB_register_file/explicit/tb//apb_rf_scb.svh(25) @ 2745: uvm_test_top.rf_env_h.rf_scb [apb_rf_scb] input data is stored in to b
# UVM_INFO E:/UVM/APB_register_file/explicit/tb/seq_lib//reg_seq_read_to.svh(19) @ 2770: uvm_test_top.rf_env_h.rf_agent_h.rf_sqr@@seq_3 [After read timer_0 reg] timer_0_reg = b
# timer_y2r = b
# timer_r2g = 0
# timer_g2y = 0
# read_out = b
# UVM_INFO E:/UVM/APB_register_file/explicit/tb/seq_lib//reg_seq_write_read_to.svh(18) @ 2770: uvm_test_top.rf_env_h.rf_agent_h.rf_sqr@@seq_1 [Initial timer_0 reg] timer_0_reg = cafe1234
# timer_y2r = 34
# timer_r2g = e12
# timer_g2y = caf
# 
# UVM_INFO E:/UVM/APB_register_file/explicit/tb//apb_rf_scb.svh(15) @ 2785: uvm_test_top.rf_env_h.rf_scb [apb_rf_scb] data rcvd from mon_port, wr_enb =0, addr =4, din =b, dout =b
# UVM_INFO E:/UVM/APB_register_file/explicit/tb//apb_rf_scb.svh(47) @ 2785: uvm_test_top.rf_env_h.rf_scb [PASSED] ==== TEST IS PASSED ====
# UVM_INFO E:/UVM/APB_register_file/explicit/tb//apb_rf_scb.svh(64) @ 2785: uvm_test_top.rf_env_h.rf_scb [apb_rf_scb] output data is b
# UVM_INFO E:/UVM/APB_register_file/explicit/tb/seq_lib//reg_seq_write_read_to.svh(26) @ 2810: uvm_test_top.rf_env_h.rf_agent_h.rf_sqr@@seq_1 [After Write timer_0 reg] timer_0_reg = b
# timer_y2r = b
# timer_r2g = 0
# timer_g2y = 0
# 
# UVM_INFO E:/UVM/APB_register_file/explicit/tb//apb_rf_scb.svh(15) @ 2825: uvm_test_top.rf_env_h.rf_scb [apb_rf_scb] data rcvd from mon_port, wr_enb =1, addr =4, din =ce4c36ce, dout =0
# UVM_INFO E:/UVM/APB_register_file/explicit/tb//apb_rf_scb.svh(25) @ 2825: uvm_test_top.rf_env_h.rf_scb [apb_rf_scb] input data is stored in to ce4c36ce
# UVM_INFO E:/UVM/APB_register_file/explicit/tb/seq_lib//reg_seq_write_read_to.svh(33) @ 2850: uvm_test_top.rf_env_h.rf_agent_h.rf_sqr@@seq_1 [After read timer_0 reg] timer_0_reg = ce4c36ce
# timer_y2r = ce
# timer_r2g = c36
# timer_g2y = ce4
# read_out = ce4c36ce
# UVM_INFO E:/UVM/APB_register_file/explicit/tb//apb_rf_scb.svh(15) @ 2865: uvm_test_top.rf_env_h.rf_scb [apb_rf_scb] data rcvd from mon_port, wr_enb =0, addr =4, din =ce4c36ce, dout =ce4c36ce
# UVM_INFO E:/UVM/APB_register_file/explicit/tb//apb_rf_scb.svh(47) @ 2865: uvm_test_top.rf_env_h.rf_scb [PASSED] ==== TEST IS PASSED ====
# UVM_INFO E:/UVM/APB_register_file/explicit/tb//apb_rf_scb.svh(64) @ 2865: uvm_test_top.rf_env_h.rf_scb [apb_rf_scb] output data is ce4c36ce
# UVM_INFO E:/UVM/APB_register_file/explicit/tb/seq_lib//reg_seq_write_to.svh(20) @ 2890: uvm_test_top.rf_env_h.rf_agent_h.rf_sqr@@seq_2 [After Write timer_0 reg] timer_0_reg = ce4c36ce
# timer_y2r = ce
# timer_r2g = c36
# timer_g2y = ce4
# 
# UVM_INFO E:/UVM/APB_register_file/explicit/tb//apb_rf_scb.svh(15) @ 2905: uvm_test_top.rf_env_h.rf_scb [apb_rf_scb] data rcvd from mon_port, wr_enb =1, addr =4, din =1b, dout =0
# UVM_INFO E:/UVM/APB_register_file/explicit/tb//apb_rf_scb.svh(25) @ 2905: uvm_test_top.rf_env_h.rf_scb [apb_rf_scb] input data is stored in to 1b
# UVM_INFO E:/UVM/APB_register_file/explicit/tb/seq_lib//reg_seq_read_to.svh(19) @ 2930: uvm_test_top.rf_env_h.rf_agent_h.rf_sqr@@seq_3 [After read timer_0 reg] timer_0_reg = 1b
# timer_y2r = 1b
# timer_r2g = 0
# timer_g2y = 0
# read_out = 1b
# UVM_INFO E:/UVM/APB_register_file/explicit/tb/seq_lib//reg_seq_write_read_to.svh(18) @ 2930: uvm_test_top.rf_env_h.rf_agent_h.rf_sqr@@seq_1 [Initial timer_0 reg] timer_0_reg = cafe1234
# timer_y2r = 34
# timer_r2g = e12
# timer_g2y = caf
# 
# UVM_INFO E:/UVM/APB_register_file/explicit/tb//apb_rf_scb.svh(15) @ 2945: uvm_test_top.rf_env_h.rf_scb [apb_rf_scb] data rcvd from mon_port, wr_enb =0, addr =4, din =1b, dout =1b
# UVM_INFO E:/UVM/APB_register_file/explicit/tb//apb_rf_scb.svh(47) @ 2945: uvm_test_top.rf_env_h.rf_scb [PASSED] ==== TEST IS PASSED ====
# UVM_INFO E:/UVM/APB_register_file/explicit/tb//apb_rf_scb.svh(64) @ 2945: uvm_test_top.rf_env_h.rf_scb [apb_rf_scb] output data is 1b
# UVM_INFO E:/UVM/APB_register_file/explicit/tb/seq_lib//reg_seq_write_read_to.svh(26) @ 2970: uvm_test_top.rf_env_h.rf_agent_h.rf_sqr@@seq_1 [After Write timer_0 reg] timer_0_reg = 1b
# timer_y2r = 1b
# timer_r2g = 0
# timer_g2y = 0
# 
# UVM_INFO E:/UVM/APB_register_file/explicit/tb//apb_rf_scb.svh(15) @ 2985: uvm_test_top.rf_env_h.rf_scb [apb_rf_scb] data rcvd from mon_port, wr_enb =1, addr =4, din =bc4c6b72, dout =0
# UVM_INFO E:/UVM/APB_register_file/explicit/tb//apb_rf_scb.svh(25) @ 2985: uvm_test_top.rf_env_h.rf_scb [apb_rf_scb] input data is stored in to bc4c6b72
# UVM_INFO E:/UVM/APB_register_file/explicit/tb/seq_lib//reg_seq_write_read_to.svh(33) @ 3010: uvm_test_top.rf_env_h.rf_agent_h.rf_sqr@@seq_1 [After read timer_0 reg] timer_0_reg = bc4c6b72
# timer_y2r = 72
# timer_r2g = c6b
# timer_g2y = bc4
# read_out = bc4c6b72
# UVM_INFO E:/UVM/APB_register_file/explicit/tb//apb_rf_scb.svh(15) @ 3025: uvm_test_top.rf_env_h.rf_scb [apb_rf_scb] data rcvd from mon_port, wr_enb =0, addr =4, din =bc4c6b72, dout =bc4c6b72
# UVM_INFO E:/UVM/APB_register_file/explicit/tb//apb_rf_scb.svh(47) @ 3025: uvm_test_top.rf_env_h.rf_scb [PASSED] ==== TEST IS PASSED ====
# UVM_INFO E:/UVM/APB_register_file/explicit/tb//apb_rf_scb.svh(64) @ 3025: uvm_test_top.rf_env_h.rf_scb [apb_rf_scb] output data is bc4c6b72
# UVM_INFO E:/UVM/APB_register_file/explicit/tb/seq_lib//reg_seq_write_to.svh(20) @ 3050: uvm_test_top.rf_env_h.rf_agent_h.rf_sqr@@seq_2 [After Write timer_0 reg] timer_0_reg = bc4c6b72
# timer_y2r = 72
# timer_r2g = c6b
# timer_g2y = bc4
# 
# UVM_INFO E:/UVM/APB_register_file/explicit/tb//apb_rf_scb.svh(15) @ 3065: uvm_test_top.rf_env_h.rf_scb [apb_rf_scb] data rcvd from mon_port, wr_enb =1, addr =4, din =4, dout =0
# UVM_INFO E:/UVM/APB_register_file/explicit/tb//apb_rf_scb.svh(25) @ 3065: uvm_test_top.rf_env_h.rf_scb [apb_rf_scb] input data is stored in to 4
# UVM_INFO E:/UVM/APB_register_file/explicit/tb/seq_lib//reg_seq_read_to.svh(19) @ 3090: uvm_test_top.rf_env_h.rf_agent_h.rf_sqr@@seq_3 [After read timer_0 reg] timer_0_reg = 4
# timer_y2r = 4
# timer_r2g = 0
# timer_g2y = 0
# read_out = 4
# UVM_INFO E:/UVM/APB_register_file/explicit/tb/seq_lib//reg_seq_write_read_to.svh(18) @ 3090: uvm_test_top.rf_env_h.rf_agent_h.rf_sqr@@seq_1 [Initial timer_0 reg] timer_0_reg = cafe1234
# timer_y2r = 34
# timer_r2g = e12
# timer_g2y = caf
# 
# UVM_INFO E:/UVM/APB_register_file/explicit/tb//apb_rf_scb.svh(15) @ 3105: uvm_test_top.rf_env_h.rf_scb [apb_rf_scb] data rcvd from mon_port, wr_enb =0, addr =4, din =4, dout =4
# UVM_INFO E:/UVM/APB_register_file/explicit/tb//apb_rf_scb.svh(47) @ 3105: uvm_test_top.rf_env_h.rf_scb [PASSED] ==== TEST IS PASSED ====
# UVM_INFO E:/UVM/APB_register_file/explicit/tb//apb_rf_scb.svh(64) @ 3105: uvm_test_top.rf_env_h.rf_scb [apb_rf_scb] output data is 4
# UVM_INFO E:/UVM/APB_register_file/explicit/tb/seq_lib//reg_seq_write_read_to.svh(26) @ 3130: uvm_test_top.rf_env_h.rf_agent_h.rf_sqr@@seq_1 [After Write timer_0 reg] timer_0_reg = 4
# timer_y2r = 4
# timer_r2g = 0
# timer_g2y = 0
# 
# UVM_INFO E:/UVM/APB_register_file/explicit/tb//apb_rf_scb.svh(15) @ 3145: uvm_test_top.rf_env_h.rf_scb [apb_rf_scb] data rcvd from mon_port, wr_enb =1, addr =4, din =4f29b59c, dout =0
# UVM_INFO E:/UVM/APB_register_file/explicit/tb//apb_rf_scb.svh(25) @ 3145: uvm_test_top.rf_env_h.rf_scb [apb_rf_scb] input data is stored in to 4f29b59c
# UVM_INFO E:/UVM/APB_register_file/explicit/tb/seq_lib//reg_seq_write_read_to.svh(33) @ 3170: uvm_test_top.rf_env_h.rf_agent_h.rf_sqr@@seq_1 [After read timer_0 reg] timer_0_reg = 4f29b59c
# timer_y2r = 9c
# timer_r2g = 9b5
# timer_g2y = 4f2
# read_out = 4f29b59c
# UVM_INFO E:/UVM/APB_register_file/explicit/tb//apb_rf_scb.svh(15) @ 3185: uvm_test_top.rf_env_h.rf_scb [apb_rf_scb] data rcvd from mon_port, wr_enb =0, addr =4, din =4f29b59c, dout =4f29b59c
# UVM_INFO E:/UVM/APB_register_file/explicit/tb//apb_rf_scb.svh(47) @ 3185: uvm_test_top.rf_env_h.rf_scb [PASSED] ==== TEST IS PASSED ====
# UVM_INFO E:/UVM/APB_register_file/explicit/tb//apb_rf_scb.svh(64) @ 3185: uvm_test_top.rf_env_h.rf_scb [apb_rf_scb] output data is 4f29b59c
# UVM_INFO E:/UVM/APB_register_file/explicit/tb/seq_lib//reg_seq_write_to.svh(20) @ 3210: uvm_test_top.rf_env_h.rf_agent_h.rf_sqr@@seq_2 [After Write timer_0 reg] timer_0_reg = 4f29b59c
# timer_y2r = 9c
# timer_r2g = 9b5
# timer_g2y = 4f2
# 
# UVM_INFO E:/UVM/APB_register_file/explicit/tb//apb_rf_scb.svh(15) @ 3225: uvm_test_top.rf_env_h.rf_scb [apb_rf_scb] data rcvd from mon_port, wr_enb =1, addr =4, din =2, dout =0
# UVM_INFO E:/UVM/APB_register_file/explicit/tb//apb_rf_scb.svh(25) @ 3225: uvm_test_top.rf_env_h.rf_scb [apb_rf_scb] input data is stored in to 2
# UVM_INFO E:/UVM/APB_register_file/explicit/tb/seq_lib//reg_seq_read_to.svh(19) @ 3250: uvm_test_top.rf_env_h.rf_agent_h.rf_sqr@@seq_3 [After read timer_0 reg] timer_0_reg = 2
# timer_y2r = 2
# timer_r2g = 0
# timer_g2y = 0
# read_out = 2
# UVM_INFO E:/UVM/APB_register_file/explicit/tb/seq_lib//reg_seq_write_read_to.svh(18) @ 3250: uvm_test_top.rf_env_h.rf_agent_h.rf_sqr@@seq_1 [Initial timer_0 reg] timer_0_reg = cafe1234
# timer_y2r = 34
# timer_r2g = e12
# timer_g2y = caf
# 
# UVM_INFO E:/UVM/APB_register_file/explicit/tb//apb_rf_scb.svh(15) @ 3265: uvm_test_top.rf_env_h.rf_scb [apb_rf_scb] data rcvd from mon_port, wr_enb =0, addr =4, din =2, dout =2
# UVM_INFO E:/UVM/APB_register_file/explicit/tb//apb_rf_scb.svh(47) @ 3265: uvm_test_top.rf_env_h.rf_scb [PASSED] ==== TEST IS PASSED ====
# UVM_INFO E:/UVM/APB_register_file/explicit/tb//apb_rf_scb.svh(64) @ 3265: uvm_test_top.rf_env_h.rf_scb [apb_rf_scb] output data is 2
# UVM_INFO E:/UVM/APB_register_file/explicit/tb/seq_lib//reg_seq_write_read_to.svh(26) @ 3290: uvm_test_top.rf_env_h.rf_agent_h.rf_sqr@@seq_1 [After Write timer_0 reg] timer_0_reg = 2
# timer_y2r = 2
# timer_r2g = 0
# timer_g2y = 0
# 
# UVM_INFO E:/UVM/APB_register_file/explicit/tb//apb_rf_scb.svh(15) @ 3305: uvm_test_top.rf_env_h.rf_scb [apb_rf_scb] data rcvd from mon_port, wr_enb =1, addr =4, din =3589fa50, dout =0
# UVM_INFO E:/UVM/APB_register_file/explicit/tb//apb_rf_scb.svh(25) @ 3305: uvm_test_top.rf_env_h.rf_scb [apb_rf_scb] input data is stored in to 3589fa50
# UVM_INFO E:/UVM/APB_register_file/explicit/tb/seq_lib//reg_seq_write_read_to.svh(33) @ 3330: uvm_test_top.rf_env_h.rf_agent_h.rf_sqr@@seq_1 [After read timer_0 reg] timer_0_reg = 3589fa50
# timer_y2r = 50
# timer_r2g = 9fa
# timer_g2y = 358
# read_out = 3589fa50
# UVM_INFO E:/UVM/APB_register_file/explicit/tb//apb_rf_scb.svh(15) @ 3345: uvm_test_top.rf_env_h.rf_scb [apb_rf_scb] data rcvd from mon_port, wr_enb =0, addr =4, din =3589fa50, dout =3589fa50
# UVM_INFO E:/UVM/APB_register_file/explicit/tb//apb_rf_scb.svh(47) @ 3345: uvm_test_top.rf_env_h.rf_scb [PASSED] ==== TEST IS PASSED ====
# UVM_INFO E:/UVM/APB_register_file/explicit/tb//apb_rf_scb.svh(64) @ 3345: uvm_test_top.rf_env_h.rf_scb [apb_rf_scb] output data is 3589fa50
# UVM_INFO E:/UVM/APB_register_file/explicit/tb/seq_lib//reg_seq_write_to.svh(20) @ 3370: uvm_test_top.rf_env_h.rf_agent_h.rf_sqr@@seq_2 [After Write timer_0 reg] timer_0_reg = 3589fa50
# timer_y2r = 50
# timer_r2g = 9fa
# timer_g2y = 358
# 
# UVM_INFO E:/UVM/APB_register_file/explicit/tb//apb_rf_scb.svh(15) @ 3385: uvm_test_top.rf_env_h.rf_scb [apb_rf_scb] data rcvd from mon_port, wr_enb =1, addr =4, din =9, dout =0
# UVM_INFO E:/UVM/APB_register_file/explicit/tb//apb_rf_scb.svh(25) @ 3385: uvm_test_top.rf_env_h.rf_scb [apb_rf_scb] input data is stored in to 9
# UVM_INFO E:/UVM/APB_register_file/explicit/tb/seq_lib//reg_seq_read_to.svh(19) @ 3410: uvm_test_top.rf_env_h.rf_agent_h.rf_sqr@@seq_3 [After read timer_0 reg] timer_0_reg = 9
# timer_y2r = 9
# timer_r2g = 0
# timer_g2y = 0
# read_out = 9
# UVM_INFO E:/UVM/APB_register_file/explicit/tb/seq_lib//reg_seq_write_read_to.svh(18) @ 3410: uvm_test_top.rf_env_h.rf_agent_h.rf_sqr@@seq_1 [Initial timer_0 reg] timer_0_reg = cafe1234
# timer_y2r = 34
# timer_r2g = e12
# timer_g2y = caf
# 
# UVM_INFO E:/UVM/APB_register_file/explicit/tb//apb_rf_scb.svh(15) @ 3425: uvm_test_top.rf_env_h.rf_scb [apb_rf_scb] data rcvd from mon_port, wr_enb =0, addr =4, din =9, dout =9
# UVM_INFO E:/UVM/APB_register_file/explicit/tb//apb_rf_scb.svh(47) @ 3425: uvm_test_top.rf_env_h.rf_scb [PASSED] ==== TEST IS PASSED ====
# UVM_INFO E:/UVM/APB_register_file/explicit/tb//apb_rf_scb.svh(64) @ 3425: uvm_test_top.rf_env_h.rf_scb [apb_rf_scb] output data is 9
# UVM_INFO E:/UVM/APB_register_file/explicit/tb/seq_lib//reg_seq_write_read_to.svh(26) @ 3450: uvm_test_top.rf_env_h.rf_agent_h.rf_sqr@@seq_1 [After Write timer_0 reg] timer_0_reg = 9
# timer_y2r = 9
# timer_r2g = 0
# timer_g2y = 0
# 
# UVM_INFO E:/UVM/APB_register_file/explicit/tb//apb_rf_scb.svh(15) @ 3465: uvm_test_top.rf_env_h.rf_scb [apb_rf_scb] data rcvd from mon_port, wr_enb =1, addr =4, din =15a31c07, dout =0
# UVM_INFO E:/UVM/APB_register_file/explicit/tb//apb_rf_scb.svh(25) @ 3465: uvm_test_top.rf_env_h.rf_scb [apb_rf_scb] input data is stored in to 15a31c07
# UVM_INFO E:/UVM/APB_register_file/explicit/tb/seq_lib//reg_seq_write_read_to.svh(33) @ 3490: uvm_test_top.rf_env_h.rf_agent_h.rf_sqr@@seq_1 [After read timer_0 reg] timer_0_reg = 15a31c07
# timer_y2r = 7
# timer_r2g = 31c
# timer_g2y = 15a
# read_out = 15a31c07
# UVM_INFO E:/UVM/APB_register_file/explicit/tb//apb_rf_scb.svh(15) @ 3505: uvm_test_top.rf_env_h.rf_scb [apb_rf_scb] data rcvd from mon_port, wr_enb =0, addr =4, din =15a31c07, dout =15a31c07
# UVM_INFO E:/UVM/APB_register_file/explicit/tb//apb_rf_scb.svh(47) @ 3505: uvm_test_top.rf_env_h.rf_scb [PASSED] ==== TEST IS PASSED ====
# UVM_INFO E:/UVM/APB_register_file/explicit/tb//apb_rf_scb.svh(64) @ 3505: uvm_test_top.rf_env_h.rf_scb [apb_rf_scb] output data is 15a31c07
# UVM_INFO E:/UVM/APB_register_file/explicit/tb/seq_lib//reg_seq_write_to.svh(20) @ 3530: uvm_test_top.rf_env_h.rf_agent_h.rf_sqr@@seq_2 [After Write timer_0 reg] timer_0_reg = 15a31c07
# timer_y2r = 7
# timer_r2g = 31c
# timer_g2y = 15a
# 
# UVM_INFO E:/UVM/APB_register_file/explicit/tb//apb_rf_scb.svh(15) @ 3545: uvm_test_top.rf_env_h.rf_scb [apb_rf_scb] data rcvd from mon_port, wr_enb =1, addr =4, din =9, dout =0
# UVM_INFO E:/UVM/APB_register_file/explicit/tb//apb_rf_scb.svh(25) @ 3545: uvm_test_top.rf_env_h.rf_scb [apb_rf_scb] input data is stored in to 9
# UVM_INFO E:/UVM/APB_register_file/explicit/tb/seq_lib//reg_seq_read_to.svh(19) @ 3570: uvm_test_top.rf_env_h.rf_agent_h.rf_sqr@@seq_3 [After read timer_0 reg] timer_0_reg = 9
# timer_y2r = 9
# timer_r2g = 0
# timer_g2y = 0
# read_out = 9
# UVM_INFO E:/UVM/APB_register_file/explicit/tb/seq_lib//reg_seq_write_read_to.svh(18) @ 3570: uvm_test_top.rf_env_h.rf_agent_h.rf_sqr@@seq_1 [Initial timer_0 reg] timer_0_reg = cafe1234
# timer_y2r = 34
# timer_r2g = e12
# timer_g2y = caf
# 
# UVM_INFO E:/UVM/APB_register_file/explicit/tb//apb_rf_scb.svh(15) @ 3585: uvm_test_top.rf_env_h.rf_scb [apb_rf_scb] data rcvd from mon_port, wr_enb =0, addr =4, din =9, dout =9
# UVM_INFO E:/UVM/APB_register_file/explicit/tb//apb_rf_scb.svh(47) @ 3585: uvm_test_top.rf_env_h.rf_scb [PASSED] ==== TEST IS PASSED ====
# UVM_INFO E:/UVM/APB_register_file/explicit/tb//apb_rf_scb.svh(64) @ 3585: uvm_test_top.rf_env_h.rf_scb [apb_rf_scb] output data is 9
# UVM_INFO E:/UVM/APB_register_file/explicit/tb/seq_lib//reg_seq_write_read_to.svh(26) @ 3610: uvm_test_top.rf_env_h.rf_agent_h.rf_sqr@@seq_1 [After Write timer_0 reg] timer_0_reg = 9
# timer_y2r = 9
# timer_r2g = 0
# timer_g2y = 0
# 
# UVM_INFO E:/UVM/APB_register_file/explicit/tb//apb_rf_scb.svh(15) @ 3625: uvm_test_top.rf_env_h.rf_scb [apb_rf_scb] data rcvd from mon_port, wr_enb =1, addr =4, din =ebd7eb3a, dout =0
# UVM_INFO E:/UVM/APB_register_file/explicit/tb//apb_rf_scb.svh(25) @ 3625: uvm_test_top.rf_env_h.rf_scb [apb_rf_scb] input data is stored in to ebd7eb3a
# UVM_INFO E:/UVM/APB_register_file/explicit/tb/seq_lib//reg_seq_write_read_to.svh(33) @ 3650: uvm_test_top.rf_env_h.rf_agent_h.rf_sqr@@seq_1 [After read timer_0 reg] timer_0_reg = ebd7eb3a
# timer_y2r = 3a
# timer_r2g = 7eb
# timer_g2y = ebd
# read_out = ebd7eb3a
# UVM_INFO E:/UVM/APB_register_file/explicit/tb//apb_rf_scb.svh(15) @ 3665: uvm_test_top.rf_env_h.rf_scb [apb_rf_scb] data rcvd from mon_port, wr_enb =0, addr =4, din =ebd7eb3a, dout =ebd7eb3a
# UVM_INFO E:/UVM/APB_register_file/explicit/tb//apb_rf_scb.svh(47) @ 3665: uvm_test_top.rf_env_h.rf_scb [PASSED] ==== TEST IS PASSED ====
# UVM_INFO E:/UVM/APB_register_file/explicit/tb//apb_rf_scb.svh(64) @ 3665: uvm_test_top.rf_env_h.rf_scb [apb_rf_scb] output data is ebd7eb3a
# UVM_INFO E:/UVM/APB_register_file/explicit/tb/seq_lib//reg_seq_write_to.svh(20) @ 3690: uvm_test_top.rf_env_h.rf_agent_h.rf_sqr@@seq_2 [After Write timer_0 reg] timer_0_reg = ebd7eb3a
# timer_y2r = 3a
# timer_r2g = 7eb
# timer_g2y = ebd
# 
# UVM_INFO E:/UVM/APB_register_file/explicit/tb//apb_rf_scb.svh(15) @ 3705: uvm_test_top.rf_env_h.rf_scb [apb_rf_scb] data rcvd from mon_port, wr_enb =1, addr =4, din =5, dout =0
# UVM_INFO E:/UVM/APB_register_file/explicit/tb//apb_rf_scb.svh(25) @ 3705: uvm_test_top.rf_env_h.rf_scb [apb_rf_scb] input data is stored in to 5
# UVM_INFO E:/UVM/APB_register_file/explicit/tb/seq_lib//reg_seq_read_to.svh(19) @ 3730: uvm_test_top.rf_env_h.rf_agent_h.rf_sqr@@seq_3 [After read timer_0 reg] timer_0_reg = 5
# timer_y2r = 5
# timer_r2g = 0
# timer_g2y = 0
# read_out = 5
# UVM_INFO E:/UVM/APB_register_file/explicit/tb/seq_lib//reg_seq_write_read_to.svh(18) @ 3730: uvm_test_top.rf_env_h.rf_agent_h.rf_sqr@@seq_1 [Initial timer_0 reg] timer_0_reg = cafe1234
# timer_y2r = 34
# timer_r2g = e12
# timer_g2y = caf
# 
# UVM_INFO E:/UVM/APB_register_file/explicit/tb//apb_rf_scb.svh(15) @ 3745: uvm_test_top.rf_env_h.rf_scb [apb_rf_scb] data rcvd from mon_port, wr_enb =0, addr =4, din =5, dout =5
# UVM_INFO E:/UVM/APB_register_file/explicit/tb//apb_rf_scb.svh(47) @ 3745: uvm_test_top.rf_env_h.rf_scb [PASSED] ==== TEST IS PASSED ====
# UVM_INFO E:/UVM/APB_register_file/explicit/tb//apb_rf_scb.svh(64) @ 3745: uvm_test_top.rf_env_h.rf_scb [apb_rf_scb] output data is 5
# UVM_INFO E:/UVM/APB_register_file/explicit/tb/seq_lib//reg_seq_write_read_to.svh(26) @ 3770: uvm_test_top.rf_env_h.rf_agent_h.rf_sqr@@seq_1 [After Write timer_0 reg] timer_0_reg = 5
# timer_y2r = 5
# timer_r2g = 0
# timer_g2y = 0
# 
# UVM_INFO E:/UVM/APB_register_file/explicit/tb//apb_rf_scb.svh(15) @ 3785: uvm_test_top.rf_env_h.rf_scb [apb_rf_scb] data rcvd from mon_port, wr_enb =1, addr =4, din =bf0307e7, dout =0
# UVM_INFO E:/UVM/APB_register_file/explicit/tb//apb_rf_scb.svh(25) @ 3785: uvm_test_top.rf_env_h.rf_scb [apb_rf_scb] input data is stored in to bf0307e7
# UVM_INFO E:/UVM/APB_register_file/explicit/tb/seq_lib//reg_seq_write_read_to.svh(33) @ 3810: uvm_test_top.rf_env_h.rf_agent_h.rf_sqr@@seq_1 [After read timer_0 reg] timer_0_reg = bf0307e7
# timer_y2r = e7
# timer_r2g = 307
# timer_g2y = bf0
# read_out = bf0307e7
# UVM_INFO E:/UVM/APB_register_file/explicit/tb//apb_rf_scb.svh(15) @ 3825: uvm_test_top.rf_env_h.rf_scb [apb_rf_scb] data rcvd from mon_port, wr_enb =0, addr =4, din =bf0307e7, dout =bf0307e7
# UVM_INFO E:/UVM/APB_register_file/explicit/tb//apb_rf_scb.svh(47) @ 3825: uvm_test_top.rf_env_h.rf_scb [PASSED] ==== TEST IS PASSED ====
# UVM_INFO E:/UVM/APB_register_file/explicit/tb//apb_rf_scb.svh(64) @ 3825: uvm_test_top.rf_env_h.rf_scb [apb_rf_scb] output data is bf0307e7
# UVM_INFO E:/UVM/APB_register_file/explicit/tb/seq_lib//reg_seq_write_to.svh(20) @ 3850: uvm_test_top.rf_env_h.rf_agent_h.rf_sqr@@seq_2 [After Write timer_0 reg] timer_0_reg = bf0307e7
# timer_y2r = e7
# timer_r2g = 307
# timer_g2y = bf0
# 
# UVM_INFO E:/UVM/APB_register_file/explicit/tb//apb_rf_scb.svh(15) @ 3865: uvm_test_top.rf_env_h.rf_scb [apb_rf_scb] data rcvd from mon_port, wr_enb =1, addr =4, din =8, dout =0
# UVM_INFO E:/UVM/APB_register_file/explicit/tb//apb_rf_scb.svh(25) @ 3865: uvm_test_top.rf_env_h.rf_scb [apb_rf_scb] input data is stored in to 8
# UVM_INFO E:/UVM/APB_register_file/explicit/tb/seq_lib//reg_seq_read_to.svh(19) @ 3890: uvm_test_top.rf_env_h.rf_agent_h.rf_sqr@@seq_3 [After read timer_0 reg] timer_0_reg = 8
# timer_y2r = 8
# timer_r2g = 0
# timer_g2y = 0
# read_out = 8
# UVM_INFO E:/UVM/APB_register_file/explicit/tb/seq_lib//reg_seq_write_read_to.svh(18) @ 3890: uvm_test_top.rf_env_h.rf_agent_h.rf_sqr@@seq_1 [Initial timer_0 reg] timer_0_reg = cafe1234
# timer_y2r = 34
# timer_r2g = e12
# timer_g2y = caf
# 
# UVM_INFO E:/UVM/APB_register_file/explicit/tb//apb_rf_scb.svh(15) @ 3905: uvm_test_top.rf_env_h.rf_scb [apb_rf_scb] data rcvd from mon_port, wr_enb =0, addr =4, din =8, dout =8
# UVM_INFO E:/UVM/APB_register_file/explicit/tb//apb_rf_scb.svh(47) @ 3905: uvm_test_top.rf_env_h.rf_scb [PASSED] ==== TEST IS PASSED ====
# UVM_INFO E:/UVM/APB_register_file/explicit/tb//apb_rf_scb.svh(64) @ 3905: uvm_test_top.rf_env_h.rf_scb [apb_rf_scb] output data is 8
# UVM_INFO E:/UVM/APB_register_file/explicit/tb/seq_lib//reg_seq_write_read_to.svh(26) @ 3930: uvm_test_top.rf_env_h.rf_agent_h.rf_sqr@@seq_1 [After Write timer_0 reg] timer_0_reg = 8
# timer_y2r = 8
# timer_r2g = 0
# timer_g2y = 0
# 
# UVM_INFO E:/UVM/APB_register_file/explicit/tb//apb_rf_scb.svh(15) @ 3945: uvm_test_top.rf_env_h.rf_scb [apb_rf_scb] data rcvd from mon_port, wr_enb =1, addr =4, din =4dabfca5, dout =0
# UVM_INFO E:/UVM/APB_register_file/explicit/tb//apb_rf_scb.svh(25) @ 3945: uvm_test_top.rf_env_h.rf_scb [apb_rf_scb] input data is stored in to 4dabfca5
# UVM_INFO E:/UVM/APB_register_file/explicit/tb/seq_lib//reg_seq_write_read_to.svh(33) @ 3970: uvm_test_top.rf_env_h.rf_agent_h.rf_sqr@@seq_1 [After read timer_0 reg] timer_0_reg = 4dabfca5
# timer_y2r = a5
# timer_r2g = bfc
# timer_g2y = 4da
# read_out = 4dabfca5
# UVM_INFO E:/UVM/APB_register_file/explicit/tb//apb_rf_scb.svh(15) @ 3985: uvm_test_top.rf_env_h.rf_scb [apb_rf_scb] data rcvd from mon_port, wr_enb =0, addr =4, din =4dabfca5, dout =4dabfca5
# UVM_INFO E:/UVM/APB_register_file/explicit/tb//apb_rf_scb.svh(47) @ 3985: uvm_test_top.rf_env_h.rf_scb [PASSED] ==== TEST IS PASSED ====
# UVM_INFO E:/UVM/APB_register_file/explicit/tb//apb_rf_scb.svh(64) @ 3985: uvm_test_top.rf_env_h.rf_scb [apb_rf_scb] output data is 4dabfca5
# UVM_INFO E:/UVM/APB_register_file/explicit/tb/seq_lib//reg_seq_write_to.svh(20) @ 4010: uvm_test_top.rf_env_h.rf_agent_h.rf_sqr@@seq_2 [After Write timer_0 reg] timer_0_reg = 4dabfca5
# timer_y2r = a5
# timer_r2g = bfc
# timer_g2y = 4da
# 
# UVM_INFO E:/UVM/APB_register_file/explicit/tb//apb_rf_scb.svh(15) @ 4025: uvm_test_top.rf_env_h.rf_scb [apb_rf_scb] data rcvd from mon_port, wr_enb =1, addr =4, din =2, dout =0
# UVM_INFO E:/UVM/APB_register_file/explicit/tb//apb_rf_scb.svh(25) @ 4025: uvm_test_top.rf_env_h.rf_scb [apb_rf_scb] input data is stored in to 2
# UVM_INFO E:/UVM/APB_register_file/explicit/tb/seq_lib//reg_seq_read_to.svh(19) @ 4050: uvm_test_top.rf_env_h.rf_agent_h.rf_sqr@@seq_3 [After read timer_0 reg] timer_0_reg = 2
# timer_y2r = 2
# timer_r2g = 0
# timer_g2y = 0
# read_out = 2
# UVM_INFO E:/UVM/APB_register_file/explicit/tb/seq_lib//reg_seq_write_read_to.svh(18) @ 4050: uvm_test_top.rf_env_h.rf_agent_h.rf_sqr@@seq_1 [Initial timer_0 reg] timer_0_reg = cafe1234
# timer_y2r = 34
# timer_r2g = e12
# timer_g2y = caf
# 
# UVM_INFO E:/UVM/APB_register_file/explicit/tb//apb_rf_scb.svh(15) @ 4065: uvm_test_top.rf_env_h.rf_scb [apb_rf_scb] data rcvd from mon_port, wr_enb =0, addr =4, din =2, dout =2
# UVM_INFO E:/UVM/APB_register_file/explicit/tb//apb_rf_scb.svh(47) @ 4065: uvm_test_top.rf_env_h.rf_scb [PASSED] ==== TEST IS PASSED ====
# UVM_INFO E:/UVM/APB_register_file/explicit/tb//apb_rf_scb.svh(64) @ 4065: uvm_test_top.rf_env_h.rf_scb [apb_rf_scb] output data is 2
# UVM_INFO E:/UVM/APB_register_file/explicit/tb/seq_lib//reg_seq_write_read_to.svh(26) @ 4090: uvm_test_top.rf_env_h.rf_agent_h.rf_sqr@@seq_1 [After Write timer_0 reg] timer_0_reg = 2
# timer_y2r = 2
# timer_r2g = 0
# timer_g2y = 0
# 
# UVM_INFO E:/UVM/APB_register_file/explicit/tb//apb_rf_scb.svh(15) @ 4105: uvm_test_top.rf_env_h.rf_scb [apb_rf_scb] data rcvd from mon_port, wr_enb =1, addr =4, din =b923988f, dout =0
# UVM_INFO E:/UVM/APB_register_file/explicit/tb//apb_rf_scb.svh(25) @ 4105: uvm_test_top.rf_env_h.rf_scb [apb_rf_scb] input data is stored in to b923988f
# UVM_INFO E:/UVM/APB_register_file/explicit/tb/seq_lib//reg_seq_write_read_to.svh(33) @ 4130: uvm_test_top.rf_env_h.rf_agent_h.rf_sqr@@seq_1 [After read timer_0 reg] timer_0_reg = b923988f
# timer_y2r = 8f
# timer_r2g = 398
# timer_g2y = b92
# read_out = b923988f
# UVM_INFO E:/UVM/APB_register_file/explicit/tb//apb_rf_scb.svh(15) @ 4145: uvm_test_top.rf_env_h.rf_scb [apb_rf_scb] data rcvd from mon_port, wr_enb =0, addr =4, din =b923988f, dout =b923988f
# UVM_INFO E:/UVM/APB_register_file/explicit/tb//apb_rf_scb.svh(47) @ 4145: uvm_test_top.rf_env_h.rf_scb [PASSED] ==== TEST IS PASSED ====
# UVM_INFO E:/UVM/APB_register_file/explicit/tb//apb_rf_scb.svh(64) @ 4145: uvm_test_top.rf_env_h.rf_scb [apb_rf_scb] output data is b923988f
# UVM_INFO E:/UVM/APB_register_file/explicit/tb/seq_lib//reg_seq_write_to.svh(20) @ 4170: uvm_test_top.rf_env_h.rf_agent_h.rf_sqr@@seq_2 [After Write timer_0 reg] timer_0_reg = b923988f
# timer_y2r = 8f
# timer_r2g = 398
# timer_g2y = b92
# 
# UVM_INFO E:/UVM/APB_register_file/explicit/tb//apb_rf_scb.svh(15) @ 4185: uvm_test_top.rf_env_h.rf_scb [apb_rf_scb] data rcvd from mon_port, wr_enb =1, addr =4, din =1d, dout =0
# UVM_INFO E:/UVM/APB_register_file/explicit/tb//apb_rf_scb.svh(25) @ 4185: uvm_test_top.rf_env_h.rf_scb [apb_rf_scb] input data is stored in to 1d
# UVM_INFO E:/UVM/APB_register_file/explicit/tb/seq_lib//reg_seq_read_to.svh(19) @ 4210: uvm_test_top.rf_env_h.rf_agent_h.rf_sqr@@seq_3 [After read timer_0 reg] timer_0_reg = 1d
# timer_y2r = 1d
# timer_r2g = 0
# timer_g2y = 0
# read_out = 1d
# UVM_INFO E:/UVM/APB_register_file/explicit/tb/seq_lib//reg_seq_write_read_to.svh(18) @ 4210: uvm_test_top.rf_env_h.rf_agent_h.rf_sqr@@seq_1 [Initial timer_0 reg] timer_0_reg = cafe1234
# timer_y2r = 34
# timer_r2g = e12
# timer_g2y = caf
# 
# UVM_INFO E:/UVM/APB_register_file/explicit/tb//apb_rf_scb.svh(15) @ 4225: uvm_test_top.rf_env_h.rf_scb [apb_rf_scb] data rcvd from mon_port, wr_enb =0, addr =4, din =1d, dout =1d
# UVM_INFO E:/UVM/APB_register_file/explicit/tb//apb_rf_scb.svh(47) @ 4225: uvm_test_top.rf_env_h.rf_scb [PASSED] ==== TEST IS PASSED ====
# UVM_INFO E:/UVM/APB_register_file/explicit/tb//apb_rf_scb.svh(64) @ 4225: uvm_test_top.rf_env_h.rf_scb [apb_rf_scb] output data is 1d
# UVM_INFO E:/UVM/APB_register_file/explicit/tb/seq_lib//reg_seq_write_read_to.svh(26) @ 4250: uvm_test_top.rf_env_h.rf_agent_h.rf_sqr@@seq_1 [After Write timer_0 reg] timer_0_reg = 1d
# timer_y2r = 1d
# timer_r2g = 0
# timer_g2y = 0
# 
# UVM_INFO E:/UVM/APB_register_file/explicit/tb//apb_rf_scb.svh(15) @ 4265: uvm_test_top.rf_env_h.rf_scb [apb_rf_scb] data rcvd from mon_port, wr_enb =1, addr =4, din =7c8c0f9c, dout =0
# UVM_INFO E:/UVM/APB_register_file/explicit/tb//apb_rf_scb.svh(25) @ 4265: uvm_test_top.rf_env_h.rf_scb [apb_rf_scb] input data is stored in to 7c8c0f9c
# UVM_INFO E:/UVM/APB_register_file/explicit/tb/seq_lib//reg_seq_write_read_to.svh(33) @ 4290: uvm_test_top.rf_env_h.rf_agent_h.rf_sqr@@seq_1 [After read timer_0 reg] timer_0_reg = 7c8c0f9c
# timer_y2r = 9c
# timer_r2g = c0f
# timer_g2y = 7c8
# read_out = 7c8c0f9c
# UVM_INFO E:/UVM/APB_register_file/explicit/tb//apb_rf_scb.svh(15) @ 4305: uvm_test_top.rf_env_h.rf_scb [apb_rf_scb] data rcvd from mon_port, wr_enb =0, addr =4, din =7c8c0f9c, dout =7c8c0f9c
# UVM_INFO E:/UVM/APB_register_file/explicit/tb//apb_rf_scb.svh(47) @ 4305: uvm_test_top.rf_env_h.rf_scb [PASSED] ==== TEST IS PASSED ====
# UVM_INFO E:/UVM/APB_register_file/explicit/tb//apb_rf_scb.svh(64) @ 4305: uvm_test_top.rf_env_h.rf_scb [apb_rf_scb] output data is 7c8c0f9c
# UVM_INFO E:/UVM/APB_register_file/explicit/tb/seq_lib//reg_seq_write_to.svh(20) @ 4330: uvm_test_top.rf_env_h.rf_agent_h.rf_sqr@@seq_2 [After Write timer_0 reg] timer_0_reg = 7c8c0f9c
# timer_y2r = 9c
# timer_r2g = c0f
# timer_g2y = 7c8
# 
# UVM_INFO E:/UVM/APB_register_file/explicit/tb//apb_rf_scb.svh(15) @ 4345: uvm_test_top.rf_env_h.rf_scb [apb_rf_scb] data rcvd from mon_port, wr_enb =1, addr =4, din =1c, dout =0
# UVM_INFO E:/UVM/APB_register_file/explicit/tb//apb_rf_scb.svh(25) @ 4345: uvm_test_top.rf_env_h.rf_scb [apb_rf_scb] input data is stored in to 1c
# UVM_INFO E:/UVM/APB_register_file/explicit/tb/seq_lib//reg_seq_read_to.svh(19) @ 4370: uvm_test_top.rf_env_h.rf_agent_h.rf_sqr@@seq_3 [After read timer_0 reg] timer_0_reg = 1c
# timer_y2r = 1c
# timer_r2g = 0
# timer_g2y = 0
# read_out = 1c
# UVM_INFO E:/UVM/APB_register_file/explicit/tb/seq_lib//reg_seq_write_read_to.svh(18) @ 4370: uvm_test_top.rf_env_h.rf_agent_h.rf_sqr@@seq_1 [Initial timer_0 reg] timer_0_reg = cafe1234
# timer_y2r = 34
# timer_r2g = e12
# timer_g2y = caf
# 
# UVM_INFO E:/UVM/APB_register_file/explicit/tb//apb_rf_scb.svh(15) @ 4385: uvm_test_top.rf_env_h.rf_scb [apb_rf_scb] data rcvd from mon_port, wr_enb =0, addr =4, din =1c, dout =1c
# UVM_INFO E:/UVM/APB_register_file/explicit/tb//apb_rf_scb.svh(47) @ 4385: uvm_test_top.rf_env_h.rf_scb [PASSED] ==== TEST IS PASSED ====
# UVM_INFO E:/UVM/APB_register_file/explicit/tb//apb_rf_scb.svh(64) @ 4385: uvm_test_top.rf_env_h.rf_scb [apb_rf_scb] output data is 1c
# UVM_INFO E:/UVM/APB_register_file/explicit/tb/seq_lib//reg_seq_write_read_to.svh(26) @ 4410: uvm_test_top.rf_env_h.rf_agent_h.rf_sqr@@seq_1 [After Write timer_0 reg] timer_0_reg = 1c
# timer_y2r = 1c
# timer_r2g = 0
# timer_g2y = 0
# 
# UVM_INFO E:/UVM/APB_register_file/explicit/tb//apb_rf_scb.svh(15) @ 4425: uvm_test_top.rf_env_h.rf_scb [apb_rf_scb] data rcvd from mon_port, wr_enb =1, addr =4, din =db9949f7, dout =0
# UVM_INFO E:/UVM/APB_register_file/explicit/tb//apb_rf_scb.svh(25) @ 4425: uvm_test_top.rf_env_h.rf_scb [apb_rf_scb] input data is stored in to db9949f7
# UVM_INFO E:/UVM/APB_register_file/explicit/tb/seq_lib//reg_seq_write_read_to.svh(33) @ 4450: uvm_test_top.rf_env_h.rf_agent_h.rf_sqr@@seq_1 [After read timer_0 reg] timer_0_reg = db9949f7
# timer_y2r = f7
# timer_r2g = 949
# timer_g2y = db9
# read_out = db9949f7
# UVM_INFO E:/UVM/APB_register_file/explicit/tb//apb_rf_scb.svh(15) @ 4465: uvm_test_top.rf_env_h.rf_scb [apb_rf_scb] data rcvd from mon_port, wr_enb =0, addr =4, din =db9949f7, dout =db9949f7
# UVM_INFO E:/UVM/APB_register_file/explicit/tb//apb_rf_scb.svh(47) @ 4465: uvm_test_top.rf_env_h.rf_scb [PASSED] ==== TEST IS PASSED ====
# UVM_INFO E:/UVM/APB_register_file/explicit/tb//apb_rf_scb.svh(64) @ 4465: uvm_test_top.rf_env_h.rf_scb [apb_rf_scb] output data is db9949f7
# UVM_INFO E:/UVM/APB_register_file/explicit/tb/seq_lib//reg_seq_write_to.svh(20) @ 4490: uvm_test_top.rf_env_h.rf_agent_h.rf_sqr@@seq_2 [After Write timer_0 reg] timer_0_reg = db9949f7
# timer_y2r = f7
# timer_r2g = 949
# timer_g2y = db9
# 
# UVM_INFO E:/UVM/APB_register_file/explicit/tb//apb_rf_scb.svh(15) @ 4505: uvm_test_top.rf_env_h.rf_scb [apb_rf_scb] data rcvd from mon_port, wr_enb =1, addr =4, din =6, dout =0
# UVM_INFO E:/UVM/APB_register_file/explicit/tb//apb_rf_scb.svh(25) @ 4505: uvm_test_top.rf_env_h.rf_scb [apb_rf_scb] input data is stored in to 6
# UVM_INFO E:/UVM/APB_register_file/explicit/tb/seq_lib//reg_seq_read_to.svh(19) @ 4530: uvm_test_top.rf_env_h.rf_agent_h.rf_sqr@@seq_3 [After read timer_0 reg] timer_0_reg = 6
# timer_y2r = 6
# timer_r2g = 0
# timer_g2y = 0
# read_out = 6
# UVM_INFO E:/UVM/APB_register_file/explicit/tb/seq_lib//reg_seq_write_read_to.svh(18) @ 4530: uvm_test_top.rf_env_h.rf_agent_h.rf_sqr@@seq_1 [Initial timer_0 reg] timer_0_reg = cafe1234
# timer_y2r = 34
# timer_r2g = e12
# timer_g2y = caf
# 
# UVM_INFO E:/UVM/APB_register_file/explicit/tb//apb_rf_scb.svh(15) @ 4545: uvm_test_top.rf_env_h.rf_scb [apb_rf_scb] data rcvd from mon_port, wr_enb =0, addr =4, din =6, dout =6
# UVM_INFO E:/UVM/APB_register_file/explicit/tb//apb_rf_scb.svh(47) @ 4545: uvm_test_top.rf_env_h.rf_scb [PASSED] ==== TEST IS PASSED ====
# UVM_INFO E:/UVM/APB_register_file/explicit/tb//apb_rf_scb.svh(64) @ 4545: uvm_test_top.rf_env_h.rf_scb [apb_rf_scb] output data is 6
# UVM_INFO E:/UVM/APB_register_file/explicit/tb/seq_lib//reg_seq_write_read_to.svh(26) @ 4570: uvm_test_top.rf_env_h.rf_agent_h.rf_sqr@@seq_1 [After Write timer_0 reg] timer_0_reg = 6
# timer_y2r = 6
# timer_r2g = 0
# timer_g2y = 0
# 
# UVM_INFO E:/UVM/APB_register_file/explicit/tb//apb_rf_scb.svh(15) @ 4585: uvm_test_top.rf_env_h.rf_scb [apb_rf_scb] data rcvd from mon_port, wr_enb =1, addr =4, din =33568ef8, dout =0
# UVM_INFO E:/UVM/APB_register_file/explicit/tb//apb_rf_scb.svh(25) @ 4585: uvm_test_top.rf_env_h.rf_scb [apb_rf_scb] input data is stored in to 33568ef8
# UVM_INFO E:/UVM/APB_register_file/explicit/tb/seq_lib//reg_seq_write_read_to.svh(33) @ 4610: uvm_test_top.rf_env_h.rf_agent_h.rf_sqr@@seq_1 [After read timer_0 reg] timer_0_reg = 33568ef8
# timer_y2r = f8
# timer_r2g = 68e
# timer_g2y = 335
# read_out = 33568ef8
# UVM_INFO E:/UVM/APB_register_file/explicit/tb//apb_rf_scb.svh(15) @ 4625: uvm_test_top.rf_env_h.rf_scb [apb_rf_scb] data rcvd from mon_port, wr_enb =0, addr =4, din =33568ef8, dout =33568ef8
# UVM_INFO E:/UVM/APB_register_file/explicit/tb//apb_rf_scb.svh(47) @ 4625: uvm_test_top.rf_env_h.rf_scb [PASSED] ==== TEST IS PASSED ====
# UVM_INFO E:/UVM/APB_register_file/explicit/tb//apb_rf_scb.svh(64) @ 4625: uvm_test_top.rf_env_h.rf_scb [apb_rf_scb] output data is 33568ef8
# UVM_INFO E:/UVM/APB_register_file/explicit/tb/seq_lib//reg_seq_write_to.svh(20) @ 4650: uvm_test_top.rf_env_h.rf_agent_h.rf_sqr@@seq_2 [After Write timer_0 reg] timer_0_reg = 33568ef8
# timer_y2r = f8
# timer_r2g = 68e
# timer_g2y = 335
# 
# UVM_INFO E:/UVM/APB_register_file/explicit/tb//apb_rf_scb.svh(15) @ 4665: uvm_test_top.rf_env_h.rf_scb [apb_rf_scb] data rcvd from mon_port, wr_enb =1, addr =4, din =1d, dout =0
# UVM_INFO E:/UVM/APB_register_file/explicit/tb//apb_rf_scb.svh(25) @ 4665: uvm_test_top.rf_env_h.rf_scb [apb_rf_scb] input data is stored in to 1d
# UVM_INFO E:/UVM/APB_register_file/explicit/tb/seq_lib//reg_seq_read_to.svh(19) @ 4690: uvm_test_top.rf_env_h.rf_agent_h.rf_sqr@@seq_3 [After read timer_0 reg] timer_0_reg = 1d
# timer_y2r = 1d
# timer_r2g = 0
# timer_g2y = 0
# read_out = 1d
# UVM_INFO E:/UVM/APB_register_file/explicit/tb/seq_lib//reg_seq_write_read_to.svh(18) @ 4690: uvm_test_top.rf_env_h.rf_agent_h.rf_sqr@@seq_1 [Initial timer_0 reg] timer_0_reg = cafe1234
# timer_y2r = 34
# timer_r2g = e12
# timer_g2y = caf
# 
# UVM_INFO E:/UVM/APB_register_file/explicit/tb//apb_rf_scb.svh(15) @ 4705: uvm_test_top.rf_env_h.rf_scb [apb_rf_scb] data rcvd from mon_port, wr_enb =0, addr =4, din =1d, dout =1d
# UVM_INFO E:/UVM/APB_register_file/explicit/tb//apb_rf_scb.svh(47) @ 4705: uvm_test_top.rf_env_h.rf_scb [PASSED] ==== TEST IS PASSED ====
# UVM_INFO E:/UVM/APB_register_file/explicit/tb//apb_rf_scb.svh(64) @ 4705: uvm_test_top.rf_env_h.rf_scb [apb_rf_scb] output data is 1d
# UVM_INFO E:/UVM/APB_register_file/explicit/tb/seq_lib//reg_seq_write_read_to.svh(26) @ 4730: uvm_test_top.rf_env_h.rf_agent_h.rf_sqr@@seq_1 [After Write timer_0 reg] timer_0_reg = 1d
# timer_y2r = 1d
# timer_r2g = 0
# timer_g2y = 0
# 
# UVM_INFO E:/UVM/APB_register_file/explicit/tb//apb_rf_scb.svh(15) @ 4745: uvm_test_top.rf_env_h.rf_scb [apb_rf_scb] data rcvd from mon_port, wr_enb =1, addr =4, din =9e11962b, dout =0
# UVM_INFO E:/UVM/APB_register_file/explicit/tb//apb_rf_scb.svh(25) @ 4745: uvm_test_top.rf_env_h.rf_scb [apb_rf_scb] input data is stored in to 9e11962b
# UVM_INFO E:/UVM/APB_register_file/explicit/tb/seq_lib//reg_seq_write_read_to.svh(33) @ 4770: uvm_test_top.rf_env_h.rf_agent_h.rf_sqr@@seq_1 [After read timer_0 reg] timer_0_reg = 9e11962b
# timer_y2r = 2b
# timer_r2g = 196
# timer_g2y = 9e1
# read_out = 9e11962b
# UVM_INFO E:/UVM/APB_register_file/explicit/tb//apb_rf_scb.svh(15) @ 4785: uvm_test_top.rf_env_h.rf_scb [apb_rf_scb] data rcvd from mon_port, wr_enb =0, addr =4, din =9e11962b, dout =9e11962b
# UVM_INFO E:/UVM/APB_register_file/explicit/tb//apb_rf_scb.svh(47) @ 4785: uvm_test_top.rf_env_h.rf_scb [PASSED] ==== TEST IS PASSED ====
# UVM_INFO E:/UVM/APB_register_file/explicit/tb//apb_rf_scb.svh(64) @ 4785: uvm_test_top.rf_env_h.rf_scb [apb_rf_scb] output data is 9e11962b
# UVM_INFO E:/UVM/APB_register_file/explicit/tb/seq_lib//reg_seq_write_to.svh(20) @ 4810: uvm_test_top.rf_env_h.rf_agent_h.rf_sqr@@seq_2 [After Write timer_0 reg] timer_0_reg = 9e11962b
# timer_y2r = 2b
# timer_r2g = 196
# timer_g2y = 9e1
# 
# UVM_INFO E:/UVM/APB_register_file/explicit/tb//apb_rf_scb.svh(15) @ 4825: uvm_test_top.rf_env_h.rf_scb [apb_rf_scb] data rcvd from mon_port, wr_enb =1, addr =4, din =c, dout =0
# UVM_INFO E:/UVM/APB_register_file/explicit/tb//apb_rf_scb.svh(25) @ 4825: uvm_test_top.rf_env_h.rf_scb [apb_rf_scb] input data is stored in to c
# UVM_INFO E:/UVM/APB_register_file/explicit/tb/seq_lib//reg_seq_read_to.svh(19) @ 4850: uvm_test_top.rf_env_h.rf_agent_h.rf_sqr@@seq_3 [After read timer_0 reg] timer_0_reg = c
# timer_y2r = c
# timer_r2g = 0
# timer_g2y = 0
# read_out = c
# UVM_INFO E:/UVM/APB_register_file/explicit/tb/seq_lib//reg_seq_write_read_to.svh(18) @ 4850: uvm_test_top.rf_env_h.rf_agent_h.rf_sqr@@seq_1 [Initial timer_0 reg] timer_0_reg = cafe1234
# timer_y2r = 34
# timer_r2g = e12
# timer_g2y = caf
# 
# UVM_INFO E:/UVM/APB_register_file/explicit/tb//apb_rf_scb.svh(15) @ 4865: uvm_test_top.rf_env_h.rf_scb [apb_rf_scb] data rcvd from mon_port, wr_enb =0, addr =4, din =c, dout =c
# UVM_INFO E:/UVM/APB_register_file/explicit/tb//apb_rf_scb.svh(47) @ 4865: uvm_test_top.rf_env_h.rf_scb [PASSED] ==== TEST IS PASSED ====
# UVM_INFO E:/UVM/APB_register_file/explicit/tb//apb_rf_scb.svh(64) @ 4865: uvm_test_top.rf_env_h.rf_scb [apb_rf_scb] output data is c
# UVM_INFO E:/UVM/APB_register_file/explicit/tb/seq_lib//reg_seq_write_read_to.svh(26) @ 4890: uvm_test_top.rf_env_h.rf_agent_h.rf_sqr@@seq_1 [After Write timer_0 reg] timer_0_reg = c
# timer_y2r = c
# timer_r2g = 0
# timer_g2y = 0
# 
# UVM_INFO E:/UVM/APB_register_file/explicit/tb//apb_rf_scb.svh(15) @ 4905: uvm_test_top.rf_env_h.rf_scb [apb_rf_scb] data rcvd from mon_port, wr_enb =1, addr =4, din =190b6784, dout =0
# UVM_INFO E:/UVM/APB_register_file/explicit/tb//apb_rf_scb.svh(25) @ 4905: uvm_test_top.rf_env_h.rf_scb [apb_rf_scb] input data is stored in to 190b6784
# UVM_INFO E:/UVM/APB_register_file/explicit/tb/seq_lib//reg_seq_write_read_to.svh(33) @ 4930: uvm_test_top.rf_env_h.rf_agent_h.rf_sqr@@seq_1 [After read timer_0 reg] timer_0_reg = 190b6784
# timer_y2r = 84
# timer_r2g = b67
# timer_g2y = 190
# read_out = 190b6784
# UVM_INFO E:/UVM/APB_register_file/explicit/tb//apb_rf_scb.svh(15) @ 4945: uvm_test_top.rf_env_h.rf_scb [apb_rf_scb] data rcvd from mon_port, wr_enb =0, addr =4, din =190b6784, dout =190b6784
# UVM_INFO E:/UVM/APB_register_file/explicit/tb//apb_rf_scb.svh(47) @ 4945: uvm_test_top.rf_env_h.rf_scb [PASSED] ==== TEST IS PASSED ====
# UVM_INFO E:/UVM/APB_register_file/explicit/tb//apb_rf_scb.svh(64) @ 4945: uvm_test_top.rf_env_h.rf_scb [apb_rf_scb] output data is 190b6784
# UVM_INFO E:/UVM/APB_register_file/explicit/tb/seq_lib//reg_seq_write_to.svh(20) @ 4970: uvm_test_top.rf_env_h.rf_agent_h.rf_sqr@@seq_2 [After Write timer_0 reg] timer_0_reg = 190b6784
# timer_y2r = 84
# timer_r2g = b67
# timer_g2y = 190
# 
# UVM_INFO E:/UVM/APB_register_file/explicit/tb//apb_rf_scb.svh(15) @ 4985: uvm_test_top.rf_env_h.rf_scb [apb_rf_scb] data rcvd from mon_port, wr_enb =1, addr =4, din =16, dout =0
# UVM_INFO E:/UVM/APB_register_file/explicit/tb//apb_rf_scb.svh(25) @ 4985: uvm_test_top.rf_env_h.rf_scb [apb_rf_scb] input data is stored in to 16
# UVM_INFO E:/UVM/APB_register_file/explicit/tb/seq_lib//reg_seq_read_to.svh(19) @ 5010: uvm_test_top.rf_env_h.rf_agent_h.rf_sqr@@seq_3 [After read timer_0 reg] timer_0_reg = 16
# timer_y2r = 16
# timer_r2g = 0
# timer_g2y = 0
# read_out = 16
# UVM_INFO E:/UVM/APB_register_file/explicit/tb/seq_lib//reg_seq_write_read_to.svh(18) @ 5010: uvm_test_top.rf_env_h.rf_agent_h.rf_sqr@@seq_1 [Initial timer_0 reg] timer_0_reg = cafe1234
# timer_y2r = 34
# timer_r2g = e12
# timer_g2y = caf
# 
# UVM_INFO E:/UVM/APB_register_file/explicit/tb//apb_rf_scb.svh(15) @ 5025: uvm_test_top.rf_env_h.rf_scb [apb_rf_scb] data rcvd from mon_port, wr_enb =0, addr =4, din =16, dout =16
# UVM_INFO E:/UVM/APB_register_file/explicit/tb//apb_rf_scb.svh(47) @ 5025: uvm_test_top.rf_env_h.rf_scb [PASSED] ==== TEST IS PASSED ====
# UVM_INFO E:/UVM/APB_register_file/explicit/tb//apb_rf_scb.svh(64) @ 5025: uvm_test_top.rf_env_h.rf_scb [apb_rf_scb] output data is 16
# UVM_INFO E:/UVM/APB_register_file/explicit/tb/seq_lib//reg_seq_write_read_to.svh(26) @ 5050: uvm_test_top.rf_env_h.rf_agent_h.rf_sqr@@seq_1 [After Write timer_0 reg] timer_0_reg = 16
# timer_y2r = 16
# timer_r2g = 0
# timer_g2y = 0
# 
# UVM_INFO E:/UVM/APB_register_file/explicit/tb//apb_rf_scb.svh(15) @ 5065: uvm_test_top.rf_env_h.rf_scb [apb_rf_scb] data rcvd from mon_port, wr_enb =1, addr =4, din =d4536108, dout =0
# UVM_INFO E:/UVM/APB_register_file/explicit/tb//apb_rf_scb.svh(25) @ 5065: uvm_test_top.rf_env_h.rf_scb [apb_rf_scb] input data is stored in to d4536108
# UVM_INFO E:/UVM/APB_register_file/explicit/tb/seq_lib//reg_seq_write_read_to.svh(33) @ 5090: uvm_test_top.rf_env_h.rf_agent_h.rf_sqr@@seq_1 [After read timer_0 reg] timer_0_reg = d4536108
# timer_y2r = 8
# timer_r2g = 361
# timer_g2y = d45
# read_out = d4536108
# UVM_INFO E:/UVM/APB_register_file/explicit/tb//apb_rf_scb.svh(15) @ 5105: uvm_test_top.rf_env_h.rf_scb [apb_rf_scb] data rcvd from mon_port, wr_enb =0, addr =4, din =d4536108, dout =d4536108
# UVM_INFO E:/UVM/APB_register_file/explicit/tb//apb_rf_scb.svh(47) @ 5105: uvm_test_top.rf_env_h.rf_scb [PASSED] ==== TEST IS PASSED ====
# UVM_INFO E:/UVM/APB_register_file/explicit/tb//apb_rf_scb.svh(64) @ 5105: uvm_test_top.rf_env_h.rf_scb [apb_rf_scb] output data is d4536108
# UVM_INFO E:/UVM/APB_register_file/explicit/tb/seq_lib//reg_seq_write_to.svh(20) @ 5130: uvm_test_top.rf_env_h.rf_agent_h.rf_sqr@@seq_2 [After Write timer_0 reg] timer_0_reg = d4536108
# timer_y2r = 8
# timer_r2g = 361
# timer_g2y = d45
# 
# UVM_INFO E:/UVM/APB_register_file/explicit/tb//apb_rf_scb.svh(15) @ 5145: uvm_test_top.rf_env_h.rf_scb [apb_rf_scb] data rcvd from mon_port, wr_enb =1, addr =4, din =19, dout =0
# UVM_INFO E:/UVM/APB_register_file/explicit/tb//apb_rf_scb.svh(25) @ 5145: uvm_test_top.rf_env_h.rf_scb [apb_rf_scb] input data is stored in to 19
# UVM_INFO E:/UVM/APB_register_file/explicit/tb/seq_lib//reg_seq_read_to.svh(19) @ 5170: uvm_test_top.rf_env_h.rf_agent_h.rf_sqr@@seq_3 [After read timer_0 reg] timer_0_reg = 19
# timer_y2r = 19
# timer_r2g = 0
# timer_g2y = 0
# read_out = 19
# UVM_INFO E:/UVM/APB_register_file/explicit/tb/seq_lib//reg_seq_write_read_to.svh(18) @ 5170: uvm_test_top.rf_env_h.rf_agent_h.rf_sqr@@seq_1 [Initial timer_0 reg] timer_0_reg = cafe1234
# timer_y2r = 34
# timer_r2g = e12
# timer_g2y = caf
# 
# UVM_INFO E:/UVM/APB_register_file/explicit/tb//apb_rf_scb.svh(15) @ 5185: uvm_test_top.rf_env_h.rf_scb [apb_rf_scb] data rcvd from mon_port, wr_enb =0, addr =4, din =19, dout =19
# UVM_INFO E:/UVM/APB_register_file/explicit/tb//apb_rf_scb.svh(47) @ 5185: uvm_test_top.rf_env_h.rf_scb [PASSED] ==== TEST IS PASSED ====
# UVM_INFO E:/UVM/APB_register_file/explicit/tb//apb_rf_scb.svh(64) @ 5185: uvm_test_top.rf_env_h.rf_scb [apb_rf_scb] output data is 19
# UVM_INFO E:/UVM/APB_register_file/explicit/tb/seq_lib//reg_seq_write_read_to.svh(26) @ 5210: uvm_test_top.rf_env_h.rf_agent_h.rf_sqr@@seq_1 [After Write timer_0 reg] timer_0_reg = 19
# timer_y2r = 19
# timer_r2g = 0
# timer_g2y = 0
# 
# UVM_INFO E:/UVM/APB_register_file/explicit/tb//apb_rf_scb.svh(15) @ 5225: uvm_test_top.rf_env_h.rf_scb [apb_rf_scb] data rcvd from mon_port, wr_enb =1, addr =4, din =2f6d1727, dout =0
# UVM_INFO E:/UVM/APB_register_file/explicit/tb//apb_rf_scb.svh(25) @ 5225: uvm_test_top.rf_env_h.rf_scb [apb_rf_scb] input data is stored in to 2f6d1727
# UVM_INFO E:/UVM/APB_register_file/explicit/tb/seq_lib//reg_seq_write_read_to.svh(33) @ 5250: uvm_test_top.rf_env_h.rf_agent_h.rf_sqr@@seq_1 [After read timer_0 reg] timer_0_reg = 2f6d1727
# timer_y2r = 27
# timer_r2g = d17
# timer_g2y = 2f6
# read_out = 2f6d1727
# UVM_INFO E:/UVM/APB_register_file/explicit/tb//apb_rf_scb.svh(15) @ 5265: uvm_test_top.rf_env_h.rf_scb [apb_rf_scb] data rcvd from mon_port, wr_enb =0, addr =4, din =2f6d1727, dout =2f6d1727
# UVM_INFO E:/UVM/APB_register_file/explicit/tb//apb_rf_scb.svh(47) @ 5265: uvm_test_top.rf_env_h.rf_scb [PASSED] ==== TEST IS PASSED ====
# UVM_INFO E:/UVM/APB_register_file/explicit/tb//apb_rf_scb.svh(64) @ 5265: uvm_test_top.rf_env_h.rf_scb [apb_rf_scb] output data is 2f6d1727
# UVM_INFO E:/UVM/APB_register_file/explicit/tb/seq_lib//reg_seq_write_to.svh(20) @ 5290: uvm_test_top.rf_env_h.rf_agent_h.rf_sqr@@seq_2 [After Write timer_0 reg] timer_0_reg = 2f6d1727
# timer_y2r = 27
# timer_r2g = d17
# timer_g2y = 2f6
# 
# UVM_INFO E:/UVM/APB_register_file/explicit/tb//apb_rf_scb.svh(15) @ 5305: uvm_test_top.rf_env_h.rf_scb [apb_rf_scb] data rcvd from mon_port, wr_enb =1, addr =4, din =1c, dout =0
# UVM_INFO E:/UVM/APB_register_file/explicit/tb//apb_rf_scb.svh(25) @ 5305: uvm_test_top.rf_env_h.rf_scb [apb_rf_scb] input data is stored in to 1c
# UVM_INFO E:/UVM/APB_register_file/explicit/tb/seq_lib//reg_seq_read_to.svh(19) @ 5330: uvm_test_top.rf_env_h.rf_agent_h.rf_sqr@@seq_3 [After read timer_0 reg] timer_0_reg = 1c
# timer_y2r = 1c
# timer_r2g = 0
# timer_g2y = 0
# read_out = 1c
# UVM_INFO E:/UVM/APB_register_file/explicit/tb/seq_lib//reg_seq_write_read_to.svh(18) @ 5330: uvm_test_top.rf_env_h.rf_agent_h.rf_sqr@@seq_1 [Initial timer_0 reg] timer_0_reg = cafe1234
# timer_y2r = 34
# timer_r2g = e12
# timer_g2y = caf
# 
# UVM_INFO E:/UVM/APB_register_file/explicit/tb//apb_rf_scb.svh(15) @ 5345: uvm_test_top.rf_env_h.rf_scb [apb_rf_scb] data rcvd from mon_port, wr_enb =0, addr =4, din =1c, dout =1c
# UVM_INFO E:/UVM/APB_register_file/explicit/tb//apb_rf_scb.svh(47) @ 5345: uvm_test_top.rf_env_h.rf_scb [PASSED] ==== TEST IS PASSED ====
# UVM_INFO E:/UVM/APB_register_file/explicit/tb//apb_rf_scb.svh(64) @ 5345: uvm_test_top.rf_env_h.rf_scb [apb_rf_scb] output data is 1c
# UVM_INFO E:/UVM/APB_register_file/explicit/tb/seq_lib//reg_seq_write_read_to.svh(26) @ 5370: uvm_test_top.rf_env_h.rf_agent_h.rf_sqr@@seq_1 [After Write timer_0 reg] timer_0_reg = 1c
# timer_y2r = 1c
# timer_r2g = 0
# timer_g2y = 0
# 
# UVM_INFO E:/UVM/APB_register_file/explicit/tb//apb_rf_scb.svh(15) @ 5385: uvm_test_top.rf_env_h.rf_scb [apb_rf_scb] data rcvd from mon_port, wr_enb =1, addr =4, din =5d7fd15a, dout =0
# UVM_INFO E:/UVM/APB_register_file/explicit/tb//apb_rf_scb.svh(25) @ 5385: uvm_test_top.rf_env_h.rf_scb [apb_rf_scb] input data is stored in to 5d7fd15a
# UVM_INFO E:/UVM/APB_register_file/explicit/tb/seq_lib//reg_seq_write_read_to.svh(33) @ 5410: uvm_test_top.rf_env_h.rf_agent_h.rf_sqr@@seq_1 [After read timer_0 reg] timer_0_reg = 5d7fd15a
# timer_y2r = 5a
# timer_r2g = fd1
# timer_g2y = 5d7
# read_out = 5d7fd15a
# UVM_INFO E:/UVM/APB_register_file/explicit/tb//apb_rf_scb.svh(15) @ 5425: uvm_test_top.rf_env_h.rf_scb [apb_rf_scb] data rcvd from mon_port, wr_enb =0, addr =4, din =5d7fd15a, dout =5d7fd15a
# UVM_INFO E:/UVM/APB_register_file/explicit/tb//apb_rf_scb.svh(47) @ 5425: uvm_test_top.rf_env_h.rf_scb [PASSED] ==== TEST IS PASSED ====
# UVM_INFO E:/UVM/APB_register_file/explicit/tb//apb_rf_scb.svh(64) @ 5425: uvm_test_top.rf_env_h.rf_scb [apb_rf_scb] output data is 5d7fd15a
# UVM_INFO E:/UVM/APB_register_file/explicit/tb/seq_lib//reg_seq_write_to.svh(20) @ 5450: uvm_test_top.rf_env_h.rf_agent_h.rf_sqr@@seq_2 [After Write timer_0 reg] timer_0_reg = 5d7fd15a
# timer_y2r = 5a
# timer_r2g = fd1
# timer_g2y = 5d7
# 
# UVM_INFO E:/UVM/APB_register_file/explicit/tb//apb_rf_scb.svh(15) @ 5465: uvm_test_top.rf_env_h.rf_scb [apb_rf_scb] data rcvd from mon_port, wr_enb =1, addr =4, din =f, dout =0
# UVM_INFO E:/UVM/APB_register_file/explicit/tb//apb_rf_scb.svh(25) @ 5465: uvm_test_top.rf_env_h.rf_scb [apb_rf_scb] input data is stored in to f
# UVM_INFO E:/UVM/APB_register_file/explicit/tb/seq_lib//reg_seq_read_to.svh(19) @ 5490: uvm_test_top.rf_env_h.rf_agent_h.rf_sqr@@seq_3 [After read timer_0 reg] timer_0_reg = f
# timer_y2r = f
# timer_r2g = 0
# timer_g2y = 0
# read_out = f
# UVM_INFO E:/UVM/APB_register_file/explicit/tb/seq_lib//reg_seq_write_read_to.svh(18) @ 5490: uvm_test_top.rf_env_h.rf_agent_h.rf_sqr@@seq_1 [Initial timer_0 reg] timer_0_reg = cafe1234
# timer_y2r = 34
# timer_r2g = e12
# timer_g2y = caf
# 
# UVM_INFO E:/UVM/APB_register_file/explicit/tb//apb_rf_scb.svh(15) @ 5505: uvm_test_top.rf_env_h.rf_scb [apb_rf_scb] data rcvd from mon_port, wr_enb =0, addr =4, din =f, dout =f
