# vsim +UVM_TESTNAME=rf_wr_t1_test -assertdebug -coverage -fsmdebug -c -debugDB top_opt 
# Loading sv_std.std
# Loading mtiUvm.uvm_pkg
# Loading work.param_pkg
# Loading work.seq_item_pkg
# Loading work.reg_model_pkg
# Loading work.seq_lib_pkg
# Loading work.rf_agent_pkg
# Loading work.test_lib_pkg
# Loading work.apb_rf_pkg
# Loading work.top_sv_unit
# Loading work.top(fast)
# Loading work.apb_rf_intf(fast)
# Loading work.apb_register_file(fast)
# Loading D:\questasim_10.0b\uvm-1.0p1\win32\uvm_dpi.dll
# ** Warning: (vsim-WLF-5000) WLF file currently in use: vsim.wlf
#           File in use by:   Hostname:   ProcessID: 117
#           Attempting to use alternate WLF file "./wlftj8emre".
# ** Warning: (vsim-WLF-5001) Could not open WLF file: vsim.wlf
#           Using alternate file: ./wlftj8emre
# ** Note: (vsim-8716) Reusing existing debug database vsim.dbg.
# 1
# ----------------------------------------------------------------
# UVM-1.0p1 
# (C) 2007-2011 Mentor Graphics Corporation
# (C) 2007-2011 Cadence Design Systems, Inc.
# (C) 2006-2011 Synopsys, Inc.
# ----------------------------------------------------------------
# UVM_INFO @ 0: reporter [RNTST] Running test rf_wr_t1_test...
# UVM_INFO @ 0: reporter [UVMTOP] UVM testbench topology:
# --------------------------------------------------------------
# Name                       Type                    Size  Value
# --------------------------------------------------------------
# uvm_test_top               rf_wr_t1_test           -     @460 
#   rf_env_h                 apb_rf_env              -     @469 
#     predictor_h            uvm_component           -     @537 
#       bus_in               uvm_analysis_imp        -     @544 
#       reg_ap               uvm_analysis_port       -     @552 
#     rf_agent_h             rf_agent                -     @489 
#       rf_drv               rf_driver               -     @672 
#         rsp_port           uvm_analysis_port       -     @687 
#         sqr_pull_port      uvm_seq_item_pull_port  -     @679 
#       rf_mon               rf_monitor              -     @695 
#         mon_port           uvm_analysis_port       -     @702 
#       rf_sqr               rf_sequencer            -     @563 
#         rsp_export         uvm_analysis_export     -     @570 
#         seq_item_export    uvm_seq_item_pull_imp   -     @664 
#         arbitration_queue  array                   0     -    
#         lock_queue         array                   0     -    
#         num_last_reqs      integral                32    'd1  
#         num_last_rsps      integral                32    'd1  
#     rf_scb                 apb_rf_scb              -     @522 
#       scb_imp              uvm_analysis_imp        -     @529 
# --------------------------------------------------------------
# 
# UVM_INFO E:/UVM/APB_register_file/explicit/tb/seq_lib//reg_seq_write_read_t1.svh(18) @ 0: uvm_test_top.rf_env_h.rf_agent_h.rf_sqr@@seq_1 [Initial timer_1 reg] timer_1_reg = face5678
# timer_y2r = 78
# timer_r2g = e56
# timer_g2y = fac
# 
# UVM_INFO E:/UVM/APB_register_file/explicit/tb/seq_lib//reg_seq_write_read_t1.svh(26) @ 90: uvm_test_top.rf_env_h.rf_agent_h.rf_sqr@@seq_1 [After Write ctl reg] timer_1_reg = 0
# timer_y2r = 0
# timer_r2g = 0
# timer_g2y = 0
# 
# UVM_INFO E:/UVM/APB_register_file/explicit/tb//apb_rf_scb.svh(15) @ 105: uvm_test_top.rf_env_h.rf_scb [apb_rf_scb] data rcvd from mon_port, wr_enb =1, addr =8, din =d, dout =0
# UVM_INFO E:/UVM/APB_register_file/explicit/tb//apb_rf_scb.svh(29) @ 105: uvm_test_top.rf_env_h.rf_scb [apb_rf_scb] input data is stored in t1 d
# UVM_INFO E:/UVM/APB_register_file/explicit/tb/seq_lib//reg_seq_write_read_t1.svh(33) @ 130: uvm_test_top.rf_env_h.rf_agent_h.rf_sqr@@seq_1 [After read ctl reg] timer_1_reg = d
# timer_y2r = d
# timer_r2g = 0
# timer_g2y = 0
# 
# UVM_INFO E:/UVM/APB_register_file/explicit/tb//apb_rf_scb.svh(15) @ 145: uvm_test_top.rf_env_h.rf_scb [apb_rf_scb] data rcvd from mon_port, wr_enb =0, addr =8, din =d, dout =d
# UVM_INFO E:/UVM/APB_register_file/explicit/tb//apb_rf_scb.svh(53) @ 145: uvm_test_top.rf_env_h.rf_scb [PASSED] ==== TEST IS PASSED ====
# UVM_INFO E:/UVM/APB_register_file/explicit/tb//apb_rf_scb.svh(64) @ 145: uvm_test_top.rf_env_h.rf_scb [apb_rf_scb] output data is d
# UVM_INFO E:/UVM/APB_register_file/explicit/tb/seq_lib//reg_seq_write_t1.svh(20) @ 170: uvm_test_top.rf_env_h.rf_agent_h.rf_sqr@@seq_2 [After Write ctl reg] timer_1_reg = d
# timer_y2r = d
# timer_r2g = 0
# timer_g2y = 0
# 
# UVM_INFO E:/UVM/APB_register_file/explicit/tb//apb_rf_scb.svh(15) @ 185: uvm_test_top.rf_env_h.rf_scb [apb_rf_scb] data rcvd from mon_port, wr_enb =1, addr =8, din =c49cf4ee, dout =0
# UVM_INFO E:/UVM/APB_register_file/explicit/tb//apb_rf_scb.svh(29) @ 185: uvm_test_top.rf_env_h.rf_scb [apb_rf_scb] input data is stored in t1 c49cf4ee
# UVM_INFO E:/UVM/APB_register_file/explicit/tb/seq_lib//reg_seq_read_t1.svh(19) @ 210: uvm_test_top.rf_env_h.rf_agent_h.rf_sqr@@seq_3 [After read ctl reg] timer_1_reg = c49cf4ee
# timer_y2r = ee
# timer_r2g = cf4
# timer_g2y = c49
# 
# UVM_INFO E:/UVM/APB_register_file/explicit/tb/seq_lib//reg_seq_write_read_t1.svh(18) @ 210: uvm_test_top.rf_env_h.rf_agent_h.rf_sqr@@seq_1 [Initial timer_1 reg] timer_1_reg = face5678
# timer_y2r = 78
# timer_r2g = e56
# timer_g2y = fac
# 
# UVM_INFO E:/UVM/APB_register_file/explicit/tb//apb_rf_scb.svh(15) @ 225: uvm_test_top.rf_env_h.rf_scb [apb_rf_scb] data rcvd from mon_port, wr_enb =0, addr =8, din =c49cf4ee, dout =c49cf4ee
# UVM_INFO E:/UVM/APB_register_file/explicit/tb//apb_rf_scb.svh(53) @ 225: uvm_test_top.rf_env_h.rf_scb [PASSED] ==== TEST IS PASSED ====
# UVM_INFO E:/UVM/APB_register_file/explicit/tb//apb_rf_scb.svh(64) @ 225: uvm_test_top.rf_env_h.rf_scb [apb_rf_scb] output data is c49cf4ee
# UVM_INFO E:/UVM/APB_register_file/explicit/tb/seq_lib//reg_seq_write_read_t1.svh(26) @ 250: uvm_test_top.rf_env_h.rf_agent_h.rf_sqr@@seq_1 [After Write ctl reg] timer_1_reg = c49cf4ee
# timer_y2r = ee
# timer_r2g = cf4
# timer_g2y = c49
# 
# UVM_INFO E:/UVM/APB_register_file/explicit/tb//apb_rf_scb.svh(15) @ 265: uvm_test_top.rf_env_h.rf_scb [apb_rf_scb] data rcvd from mon_port, wr_enb =1, addr =8, din =1, dout =0
# UVM_INFO E:/UVM/APB_register_file/explicit/tb//apb_rf_scb.svh(29) @ 265: uvm_test_top.rf_env_h.rf_scb [apb_rf_scb] input data is stored in t1 1
# UVM_INFO E:/UVM/APB_register_file/explicit/tb/seq_lib//reg_seq_write_read_t1.svh(33) @ 290: uvm_test_top.rf_env_h.rf_agent_h.rf_sqr@@seq_1 [After read ctl reg] timer_1_reg = 1
# timer_y2r = 1
# timer_r2g = 0
# timer_g2y = 0
# 
# UVM_INFO E:/UVM/APB_register_file/explicit/tb//apb_rf_scb.svh(15) @ 305: uvm_test_top.rf_env_h.rf_scb [apb_rf_scb] data rcvd from mon_port, wr_enb =0, addr =8, din =1, dout =1
# UVM_INFO E:/UVM/APB_register_file/explicit/tb//apb_rf_scb.svh(53) @ 305: uvm_test_top.rf_env_h.rf_scb [PASSED] ==== TEST IS PASSED ====
# UVM_INFO E:/UVM/APB_register_file/explicit/tb//apb_rf_scb.svh(64) @ 305: uvm_test_top.rf_env_h.rf_scb [apb_rf_scb] output data is 1
# UVM_INFO E:/UVM/APB_register_file/explicit/tb/seq_lib//reg_seq_write_t1.svh(20) @ 330: uvm_test_top.rf_env_h.rf_agent_h.rf_sqr@@seq_2 [After Write ctl reg] timer_1_reg = 1
# timer_y2r = 1
# timer_r2g = 0
# timer_g2y = 0
# 
# UVM_INFO E:/UVM/APB_register_file/explicit/tb//apb_rf_scb.svh(15) @ 345: uvm_test_top.rf_env_h.rf_scb [apb_rf_scb] data rcvd from mon_port, wr_enb =1, addr =8, din =bbda20e6, dout =0
# UVM_INFO E:/UVM/APB_register_file/explicit/tb//apb_rf_scb.svh(29) @ 345: uvm_test_top.rf_env_h.rf_scb [apb_rf_scb] input data is stored in t1 bbda20e6
# UVM_INFO E:/UVM/APB_register_file/explicit/tb/seq_lib//reg_seq_read_t1.svh(19) @ 370: uvm_test_top.rf_env_h.rf_agent_h.rf_sqr@@seq_3 [After read ctl reg] timer_1_reg = bbda20e6
# timer_y2r = e6
# timer_r2g = a20
# timer_g2y = bbd
# 
# UVM_INFO E:/UVM/APB_register_file/explicit/tb/seq_lib//reg_seq_write_read_t1.svh(18) @ 370: uvm_test_top.rf_env_h.rf_agent_h.rf_sqr@@seq_1 [Initial timer_1 reg] timer_1_reg = face5678
# timer_y2r = 78
# timer_r2g = e56
# timer_g2y = fac
# 
# UVM_INFO E:/UVM/APB_register_file/explicit/tb//apb_rf_scb.svh(15) @ 385: uvm_test_top.rf_env_h.rf_scb [apb_rf_scb] data rcvd from mon_port, wr_enb =0, addr =8, din =bbda20e6, dout =bbda20e6
# UVM_INFO E:/UVM/APB_register_file/explicit/tb//apb_rf_scb.svh(53) @ 385: uvm_test_top.rf_env_h.rf_scb [PASSED] ==== TEST IS PASSED ====
# UVM_INFO E:/UVM/APB_register_file/explicit/tb//apb_rf_scb.svh(64) @ 385: uvm_test_top.rf_env_h.rf_scb [apb_rf_scb] output data is bbda20e6
# UVM_INFO E:/UVM/APB_register_file/explicit/tb/seq_lib//reg_seq_write_read_t1.svh(26) @ 410: uvm_test_top.rf_env_h.rf_agent_h.rf_sqr@@seq_1 [After Write ctl reg] timer_1_reg = bbda20e6
# timer_y2r = e6
# timer_r2g = a20
# timer_g2y = bbd
# 
# UVM_INFO E:/UVM/APB_register_file/explicit/tb//apb_rf_scb.svh(15) @ 425: uvm_test_top.rf_env_h.rf_scb [apb_rf_scb] data rcvd from mon_port, wr_enb =1, addr =8, din =2, dout =0
# UVM_INFO E:/UVM/APB_register_file/explicit/tb//apb_rf_scb.svh(29) @ 425: uvm_test_top.rf_env_h.rf_scb [apb_rf_scb] input data is stored in t1 2
# UVM_INFO E:/UVM/APB_register_file/explicit/tb/seq_lib//reg_seq_write_read_t1.svh(33) @ 450: uvm_test_top.rf_env_h.rf_agent_h.rf_sqr@@seq_1 [After read ctl reg] timer_1_reg = 2
# timer_y2r = 2
# timer_r2g = 0
# timer_g2y = 0
# 
# UVM_INFO E:/UVM/APB_register_file/explicit/tb//apb_rf_scb.svh(15) @ 465: uvm_test_top.rf_env_h.rf_scb [apb_rf_scb] data rcvd from mon_port, wr_enb =0, addr =8, din =2, dout =2
# UVM_INFO E:/UVM/APB_register_file/explicit/tb//apb_rf_scb.svh(53) @ 465: uvm_test_top.rf_env_h.rf_scb [PASSED] ==== TEST IS PASSED ====
# UVM_INFO E:/UVM/APB_register_file/explicit/tb//apb_rf_scb.svh(64) @ 465: uvm_test_top.rf_env_h.rf_scb [apb_rf_scb] output data is 2
# UVM_INFO E:/UVM/APB_register_file/explicit/tb/seq_lib//reg_seq_write_t1.svh(20) @ 490: uvm_test_top.rf_env_h.rf_agent_h.rf_sqr@@seq_2 [After Write ctl reg] timer_1_reg = 2
# timer_y2r = 2
# timer_r2g = 0
# timer_g2y = 0
# 
# UVM_INFO E:/UVM/APB_register_file/explicit/tb//apb_rf_scb.svh(15) @ 505: uvm_test_top.rf_env_h.rf_scb [apb_rf_scb] data rcvd from mon_port, wr_enb =1, addr =8, din =a9ec6567, dout =0
# UVM_INFO E:/UVM/APB_register_file/explicit/tb//apb_rf_scb.svh(29) @ 505: uvm_test_top.rf_env_h.rf_scb [apb_rf_scb] input data is stored in t1 a9ec6567
# UVM_INFO E:/UVM/APB_register_file/explicit/tb/seq_lib//reg_seq_read_t1.svh(19) @ 530: uvm_test_top.rf_env_h.rf_agent_h.rf_sqr@@seq_3 [After read ctl reg] timer_1_reg = a9ec6567
# timer_y2r = 67
# timer_r2g = c65
# timer_g2y = a9e
# 
# UVM_INFO E:/UVM/APB_register_file/explicit/tb/seq_lib//reg_seq_write_read_t1.svh(18) @ 530: uvm_test_top.rf_env_h.rf_agent_h.rf_sqr@@seq_1 [Initial timer_1 reg] timer_1_reg = face5678
# timer_y2r = 78
# timer_r2g = e56
# timer_g2y = fac
# 
# UVM_INFO E:/UVM/APB_register_file/explicit/tb//apb_rf_scb.svh(15) @ 545: uvm_test_top.rf_env_h.rf_scb [apb_rf_scb] data rcvd from mon_port, wr_enb =0, addr =8, din =a9ec6567, dout =a9ec6567
# UVM_INFO E:/UVM/APB_register_file/explicit/tb//apb_rf_scb.svh(53) @ 545: uvm_test_top.rf_env_h.rf_scb [PASSED] ==== TEST IS PASSED ====
# UVM_INFO E:/UVM/APB_register_file/explicit/tb//apb_rf_scb.svh(64) @ 545: uvm_test_top.rf_env_h.rf_scb [apb_rf_scb] output data is a9ec6567
# UVM_INFO E:/UVM/APB_register_file/explicit/tb/seq_lib//reg_seq_write_read_t1.svh(26) @ 570: uvm_test_top.rf_env_h.rf_agent_h.rf_sqr@@seq_1 [After Write ctl reg] timer_1_reg = a9ec6567
# timer_y2r = 67
# timer_r2g = c65
# timer_g2y = a9e
# 
# UVM_INFO E:/UVM/APB_register_file/explicit/tb//apb_rf_scb.svh(15) @ 585: uvm_test_top.rf_env_h.rf_scb [apb_rf_scb] data rcvd from mon_port, wr_enb =1, addr =8, din =15, dout =0
# UVM_INFO E:/UVM/APB_register_file/explicit/tb//apb_rf_scb.svh(29) @ 585: uvm_test_top.rf_env_h.rf_scb [apb_rf_scb] input data is stored in t1 15
# UVM_INFO E:/UVM/APB_register_file/explicit/tb/seq_lib//reg_seq_write_read_t1.svh(33) @ 610: uvm_test_top.rf_env_h.rf_agent_h.rf_sqr@@seq_1 [After read ctl reg] timer_1_reg = 15
# timer_y2r = 15
# timer_r2g = 0
# timer_g2y = 0
# 
# UVM_INFO E:/UVM/APB_register_file/explicit/tb//apb_rf_scb.svh(15) @ 625: uvm_test_top.rf_env_h.rf_scb [apb_rf_scb] data rcvd from mon_port, wr_enb =0, addr =8, din =15, dout =15
# UVM_INFO E:/UVM/APB_register_file/explicit/tb//apb_rf_scb.svh(53) @ 625: uvm_test_top.rf_env_h.rf_scb [PASSED] ==== TEST IS PASSED ====
# UVM_INFO E:/UVM/APB_register_file/explicit/tb//apb_rf_scb.svh(64) @ 625: uvm_test_top.rf_env_h.rf_scb [apb_rf_scb] output data is 15
# UVM_INFO E:/UVM/APB_register_file/explicit/tb/seq_lib//reg_seq_write_t1.svh(20) @ 650: uvm_test_top.rf_env_h.rf_agent_h.rf_sqr@@seq_2 [After Write ctl reg] timer_1_reg = 15
# timer_y2r = 15
# timer_r2g = 0
# timer_g2y = 0
# 
# UVM_INFO E:/UVM/APB_register_file/explicit/tb//apb_rf_scb.svh(15) @ 665: uvm_test_top.rf_env_h.rf_scb [apb_rf_scb] data rcvd from mon_port, wr_enb =1, addr =8, din =3492104c, dout =0
# UVM_INFO E:/UVM/APB_register_file/explicit/tb//apb_rf_scb.svh(29) @ 665: uvm_test_top.rf_env_h.rf_scb [apb_rf_scb] input data is stored in t1 3492104c
# UVM_INFO E:/UVM/APB_register_file/explicit/tb/seq_lib//reg_seq_read_t1.svh(19) @ 690: uvm_test_top.rf_env_h.rf_agent_h.rf_sqr@@seq_3 [After read ctl reg] timer_1_reg = 3492104c
# timer_y2r = 4c
# timer_r2g = 210
# timer_g2y = 349
# 
# UVM_INFO E:/UVM/APB_register_file/explicit/tb/seq_lib//reg_seq_write_read_t1.svh(18) @ 690: uvm_test_top.rf_env_h.rf_agent_h.rf_sqr@@seq_1 [Initial timer_1 reg] timer_1_reg = face5678
# timer_y2r = 78
# timer_r2g = e56
# timer_g2y = fac
# 
# UVM_INFO E:/UVM/APB_register_file/explicit/tb//apb_rf_scb.svh(15) @ 705: uvm_test_top.rf_env_h.rf_scb [apb_rf_scb] data rcvd from mon_port, wr_enb =0, addr =8, din =3492104c, dout =3492104c
# UVM_INFO E:/UVM/APB_register_file/explicit/tb//apb_rf_scb.svh(53) @ 705: uvm_test_top.rf_env_h.rf_scb [PASSED] ==== TEST IS PASSED ====
# UVM_INFO E:/UVM/APB_register_file/explicit/tb//apb_rf_scb.svh(64) @ 705: uvm_test_top.rf_env_h.rf_scb [apb_rf_scb] output data is 3492104c
# UVM_INFO E:/UVM/APB_register_file/explicit/tb/seq_lib//reg_seq_write_read_t1.svh(26) @ 730: uvm_test_top.rf_env_h.rf_agent_h.rf_sqr@@seq_1 [After Write ctl reg] timer_1_reg = 3492104c
# timer_y2r = 4c
# timer_r2g = 210
# timer_g2y = 349
# 
# UVM_INFO E:/UVM/APB_register_file/explicit/tb//apb_rf_scb.svh(15) @ 745: uvm_test_top.rf_env_h.rf_scb [apb_rf_scb] data rcvd from mon_port, wr_enb =1, addr =8, din =1d, dout =0
# UVM_INFO E:/UVM/APB_register_file/explicit/tb//apb_rf_scb.svh(29) @ 745: uvm_test_top.rf_env_h.rf_scb [apb_rf_scb] input data is stored in t1 1d
# UVM_INFO E:/UVM/APB_register_file/explicit/tb/seq_lib//reg_seq_write_read_t1.svh(33) @ 770: uvm_test_top.rf_env_h.rf_agent_h.rf_sqr@@seq_1 [After read ctl reg] timer_1_reg = 1d
# timer_y2r = 1d
# timer_r2g = 0
# timer_g2y = 0
# 
# UVM_INFO E:/UVM/APB_register_file/explicit/tb//apb_rf_scb.svh(15) @ 785: uvm_test_top.rf_env_h.rf_scb [apb_rf_scb] data rcvd from mon_port, wr_enb =0, addr =8, din =1d, dout =1d
# UVM_INFO E:/UVM/APB_register_file/explicit/tb//apb_rf_scb.svh(53) @ 785: uvm_test_top.rf_env_h.rf_scb [PASSED] ==== TEST IS PASSED ====
# UVM_INFO E:/UVM/APB_register_file/explicit/tb//apb_rf_scb.svh(64) @ 785: uvm_test_top.rf_env_h.rf_scb [apb_rf_scb] output data is 1d
# UVM_INFO E:/UVM/APB_register_file/explicit/tb/seq_lib//reg_seq_write_t1.svh(20) @ 810: uvm_test_top.rf_env_h.rf_agent_h.rf_sqr@@seq_2 [After Write ctl reg] timer_1_reg = 1d
# timer_y2r = 1d
# timer_r2g = 0
# timer_g2y = 0
# 
# UVM_INFO E:/UVM/APB_register_file/explicit/tb//apb_rf_scb.svh(15) @ 825: uvm_test_top.rf_env_h.rf_scb [apb_rf_scb] data rcvd from mon_port, wr_enb =1, addr =8, din =a07ea4eb, dout =0
# UVM_INFO E:/UVM/APB_register_file/explicit/tb//apb_rf_scb.svh(29) @ 825: uvm_test_top.rf_env_h.rf_scb [apb_rf_scb] input data is stored in t1 a07ea4eb
# UVM_INFO E:/UVM/APB_register_file/explicit/tb/seq_lib//reg_seq_read_t1.svh(19) @ 850: uvm_test_top.rf_env_h.rf_agent_h.rf_sqr@@seq_3 [After read ctl reg] timer_1_reg = a07ea4eb
# timer_y2r = eb
# timer_r2g = ea4
# timer_g2y = a07
# 
# UVM_INFO E:/UVM/APB_register_file/explicit/tb/seq_lib//reg_seq_write_read_t1.svh(18) @ 850: uvm_test_top.rf_env_h.rf_agent_h.rf_sqr@@seq_1 [Initial timer_1 reg] timer_1_reg = face5678
# timer_y2r = 78
# timer_r2g = e56
# timer_g2y = fac
# 
# UVM_INFO E:/UVM/APB_register_file/explicit/tb//apb_rf_scb.svh(15) @ 865: uvm_test_top.rf_env_h.rf_scb [apb_rf_scb] data rcvd from mon_port, wr_enb =0, addr =8, din =a07ea4eb, dout =a07ea4eb
# UVM_INFO E:/UVM/APB_register_file/explicit/tb//apb_rf_scb.svh(53) @ 865: uvm_test_top.rf_env_h.rf_scb [PASSED] ==== TEST IS PASSED ====
# UVM_INFO E:/UVM/APB_register_file/explicit/tb//apb_rf_scb.svh(64) @ 865: uvm_test_top.rf_env_h.rf_scb [apb_rf_scb] output data is a07ea4eb
# UVM_INFO E:/UVM/APB_register_file/explicit/tb/seq_lib//reg_seq_write_read_t1.svh(26) @ 890: uvm_test_top.rf_env_h.rf_agent_h.rf_sqr@@seq_1 [After Write ctl reg] timer_1_reg = a07ea4eb
# timer_y2r = eb
# timer_r2g = ea4
# timer_g2y = a07
# 
# UVM_INFO E:/UVM/APB_register_file/explicit/tb//apb_rf_scb.svh(15) @ 905: uvm_test_top.rf_env_h.rf_scb [apb_rf_scb] data rcvd from mon_port, wr_enb =1, addr =8, din =1, dout =0
# UVM_INFO E:/UVM/APB_register_file/explicit/tb//apb_rf_scb.svh(29) @ 905: uvm_test_top.rf_env_h.rf_scb [apb_rf_scb] input data is stored in t1 1
# UVM_INFO E:/UVM/APB_register_file/explicit/tb/seq_lib//reg_seq_write_read_t1.svh(33) @ 930: uvm_test_top.rf_env_h.rf_agent_h.rf_sqr@@seq_1 [After read ctl reg] timer_1_reg = 1
# timer_y2r = 1
# timer_r2g = 0
# timer_g2y = 0
# 
# UVM_INFO E:/UVM/APB_register_file/explicit/tb//apb_rf_scb.svh(15) @ 945: uvm_test_top.rf_env_h.rf_scb [apb_rf_scb] data rcvd from mon_port, wr_enb =0, addr =8, din =1, dout =1
# UVM_INFO E:/UVM/APB_register_file/explicit/tb//apb_rf_scb.svh(53) @ 945: uvm_test_top.rf_env_h.rf_scb [PASSED] ==== TEST IS PASSED ====
# UVM_INFO E:/UVM/APB_register_file/explicit/tb//apb_rf_scb.svh(64) @ 945: uvm_test_top.rf_env_h.rf_scb [apb_rf_scb] output data is 1
# UVM_INFO E:/UVM/APB_register_file/explicit/tb/seq_lib//reg_seq_write_t1.svh(20) @ 970: uvm_test_top.rf_env_h.rf_agent_h.rf_sqr@@seq_2 [After Write ctl reg] timer_1_reg = 1
# timer_y2r = 1
# timer_r2g = 0
# timer_g2y = 0
# 
# UVM_INFO E:/UVM/APB_register_file/explicit/tb//apb_rf_scb.svh(15) @ 985: uvm_test_top.rf_env_h.rf_scb [apb_rf_scb] data rcvd from mon_port, wr_enb =1, addr =8, din =59e90c1d, dout =0
# UVM_INFO E:/UVM/APB_register_file/explicit/tb//apb_rf_scb.svh(29) @ 985: uvm_test_top.rf_env_h.rf_scb [apb_rf_scb] input data is stored in t1 59e90c1d
# UVM_INFO E:/UVM/APB_register_file/explicit/tb/seq_lib//reg_seq_read_t1.svh(19) @ 1010: uvm_test_top.rf_env_h.rf_agent_h.rf_sqr@@seq_3 [After read ctl reg] timer_1_reg = 59e90c1d
# timer_y2r = 1d
# timer_r2g = 90c
# timer_g2y = 59e
# 
# UVM_INFO E:/UVM/APB_register_file/explicit/tb/seq_lib//reg_seq_write_read_t1.svh(18) @ 1010: uvm_test_top.rf_env_h.rf_agent_h.rf_sqr@@seq_1 [Initial timer_1 reg] timer_1_reg = face5678
# timer_y2r = 78
# timer_r2g = e56
# timer_g2y = fac
# 
# UVM_INFO E:/UVM/APB_register_file/explicit/tb//apb_rf_scb.svh(15) @ 1025: uvm_test_top.rf_env_h.rf_scb [apb_rf_scb] data rcvd from mon_port, wr_enb =0, addr =8, din =59e90c1d, dout =59e90c1d
# UVM_INFO E:/UVM/APB_register_file/explicit/tb//apb_rf_scb.svh(53) @ 1025: uvm_test_top.rf_env_h.rf_scb [PASSED] ==== TEST IS PASSED ====
# UVM_INFO E:/UVM/APB_register_file/explicit/tb//apb_rf_scb.svh(64) @ 1025: uvm_test_top.rf_env_h.rf_scb [apb_rf_scb] output data is 59e90c1d
# UVM_INFO E:/UVM/APB_register_file/explicit/tb/seq_lib//reg_seq_write_read_t1.svh(26) @ 1050: uvm_test_top.rf_env_h.rf_agent_h.rf_sqr@@seq_1 [After Write ctl reg] timer_1_reg = 59e90c1d
# timer_y2r = 1d
# timer_r2g = 90c
# timer_g2y = 59e
# 
# UVM_INFO E:/UVM/APB_register_file/explicit/tb//apb_rf_scb.svh(15) @ 1065: uvm_test_top.rf_env_h.rf_scb [apb_rf_scb] data rcvd from mon_port, wr_enb =1, addr =8, din =f, dout =0
# UVM_INFO E:/UVM/APB_register_file/explicit/tb//apb_rf_scb.svh(29) @ 1065: uvm_test_top.rf_env_h.rf_scb [apb_rf_scb] input data is stored in t1 f
# UVM_INFO E:/UVM/APB_register_file/explicit/tb/seq_lib//reg_seq_write_read_t1.svh(33) @ 1090: uvm_test_top.rf_env_h.rf_agent_h.rf_sqr@@seq_1 [After read ctl reg] timer_1_reg = f
# timer_y2r = f
# timer_r2g = 0
# timer_g2y = 0
# 
# UVM_INFO E:/UVM/APB_register_file/explicit/tb//apb_rf_scb.svh(15) @ 1105: uvm_test_top.rf_env_h.rf_scb [apb_rf_scb] data rcvd from mon_port, wr_enb =0, addr =8, din =f, dout =f
# UVM_INFO E:/UVM/APB_register_file/explicit/tb//apb_rf_scb.svh(53) @ 1105: uvm_test_top.rf_env_h.rf_scb [PASSED] ==== TEST IS PASSED ====
# UVM_INFO E:/UVM/APB_register_file/explicit/tb//apb_rf_scb.svh(64) @ 1105: uvm_test_top.rf_env_h.rf_scb [apb_rf_scb] output data is f
# UVM_INFO E:/UVM/APB_register_file/explicit/tb/seq_lib//reg_seq_write_t1.svh(20) @ 1130: uvm_test_top.rf_env_h.rf_agent_h.rf_sqr@@seq_2 [After Write ctl reg] timer_1_reg = f
# timer_y2r = f
# timer_r2g = 0
# timer_g2y = 0
# 
# UVM_INFO E:/UVM/APB_register_file/explicit/tb//apb_rf_scb.svh(15) @ 1145: uvm_test_top.rf_env_h.rf_scb [apb_rf_scb] data rcvd from mon_port, wr_enb =1, addr =8, din =55f195e6, dout =0
# UVM_INFO E:/UVM/APB_register_file/explicit/tb//apb_rf_scb.svh(29) @ 1145: uvm_test_top.rf_env_h.rf_scb [apb_rf_scb] input data is stored in t1 55f195e6
# UVM_INFO E:/UVM/APB_register_file/explicit/tb/seq_lib//reg_seq_read_t1.svh(19) @ 1170: uvm_test_top.rf_env_h.rf_agent_h.rf_sqr@@seq_3 [After read ctl reg] timer_1_reg = 55f195e6
# timer_y2r = e6
# timer_r2g = 195
# timer_g2y = 55f
# 
# UVM_INFO E:/UVM/APB_register_file/explicit/tb/seq_lib//reg_seq_write_read_t1.svh(18) @ 1170: uvm_test_top.rf_env_h.rf_agent_h.rf_sqr@@seq_1 [Initial timer_1 reg] timer_1_reg = face5678
# timer_y2r = 78
# timer_r2g = e56
# timer_g2y = fac
# 
# UVM_INFO E:/UVM/APB_register_file/explicit/tb//apb_rf_scb.svh(15) @ 1185: uvm_test_top.rf_env_h.rf_scb [apb_rf_scb] data rcvd from mon_port, wr_enb =0, addr =8, din =55f195e6, dout =55f195e6
# UVM_INFO E:/UVM/APB_register_file/explicit/tb//apb_rf_scb.svh(53) @ 1185: uvm_test_top.rf_env_h.rf_scb [PASSED] ==== TEST IS PASSED ====
# UVM_INFO E:/UVM/APB_register_file/explicit/tb//apb_rf_scb.svh(64) @ 1185: uvm_test_top.rf_env_h.rf_scb [apb_rf_scb] output data is 55f195e6
# UVM_INFO E:/UVM/APB_register_file/explicit/tb/seq_lib//reg_seq_write_read_t1.svh(26) @ 1210: uvm_test_top.rf_env_h.rf_agent_h.rf_sqr@@seq_1 [After Write ctl reg] timer_1_reg = 55f195e6
# timer_y2r = e6
# timer_r2g = 195
# timer_g2y = 55f
# 
# UVM_INFO E:/UVM/APB_register_file/explicit/tb//apb_rf_scb.svh(15) @ 1225: uvm_test_top.rf_env_h.rf_scb [apb_rf_scb] data rcvd from mon_port, wr_enb =1, addr =8, din =5, dout =0
# UVM_INFO E:/UVM/APB_register_file/explicit/tb//apb_rf_scb.svh(29) @ 1225: uvm_test_top.rf_env_h.rf_scb [apb_rf_scb] input data is stored in t1 5
# UVM_INFO E:/UVM/APB_register_file/explicit/tb/seq_lib//reg_seq_write_read_t1.svh(33) @ 1250: uvm_test_top.rf_env_h.rf_agent_h.rf_sqr@@seq_1 [After read ctl reg] timer_1_reg = 5
# timer_y2r = 5
# timer_r2g = 0
# timer_g2y = 0
# 
# UVM_INFO E:/UVM/APB_register_file/explicit/tb//apb_rf_scb.svh(15) @ 1265: uvm_test_top.rf_env_h.rf_scb [apb_rf_scb] data rcvd from mon_port, wr_enb =0, addr =8, din =5, dout =5
# UVM_INFO E:/UVM/APB_register_file/explicit/tb//apb_rf_scb.svh(53) @ 1265: uvm_test_top.rf_env_h.rf_scb [PASSED] ==== TEST IS PASSED ====
# UVM_INFO E:/UVM/APB_register_file/explicit/tb//apb_rf_scb.svh(64) @ 1265: uvm_test_top.rf_env_h.rf_scb [apb_rf_scb] output data is 5
# UVM_INFO E:/UVM/APB_register_file/explicit/tb/seq_lib//reg_seq_write_t1.svh(20) @ 1290: uvm_test_top.rf_env_h.rf_agent_h.rf_sqr@@seq_2 [After Write ctl reg] timer_1_reg = 5
# timer_y2r = 5
# timer_r2g = 0
# timer_g2y = 0
# 
# UVM_INFO E:/UVM/APB_register_file/explicit/tb//apb_rf_scb.svh(15) @ 1305: uvm_test_top.rf_env_h.rf_scb [apb_rf_scb] data rcvd from mon_port, wr_enb =1, addr =8, din =1fcdcb91, dout =0
# UVM_INFO E:/UVM/APB_register_file/explicit/tb//apb_rf_scb.svh(29) @ 1305: uvm_test_top.rf_env_h.rf_scb [apb_rf_scb] input data is stored in t1 1fcdcb91
# UVM_INFO E:/UVM/APB_register_file/explicit/tb/seq_lib//reg_seq_read_t1.svh(19) @ 1330: uvm_test_top.rf_env_h.rf_agent_h.rf_sqr@@seq_3 [After read ctl reg] timer_1_reg = 1fcdcb91
# timer_y2r = 91
# timer_r2g = dcb
# timer_g2y = 1fc
# 
# UVM_INFO E:/UVM/APB_register_file/explicit/tb/seq_lib//reg_seq_write_read_t1.svh(18) @ 1330: uvm_test_top.rf_env_h.rf_agent_h.rf_sqr@@seq_1 [Initial timer_1 reg] timer_1_reg = face5678
# timer_y2r = 78
# timer_r2g = e56
# timer_g2y = fac
# 
# UVM_INFO E:/UVM/APB_register_file/explicit/tb//apb_rf_scb.svh(15) @ 1345: uvm_test_top.rf_env_h.rf_scb [apb_rf_scb] data rcvd from mon_port, wr_enb =0, addr =8, din =1fcdcb91, dout =1fcdcb91
# UVM_INFO E:/UVM/APB_register_file/explicit/tb//apb_rf_scb.svh(53) @ 1345: uvm_test_top.rf_env_h.rf_scb [PASSED] ==== TEST IS PASSED ====
# UVM_INFO E:/UVM/APB_register_file/explicit/tb//apb_rf_scb.svh(64) @ 1345: uvm_test_top.rf_env_h.rf_scb [apb_rf_scb] output data is 1fcdcb91
# UVM_INFO E:/UVM/APB_register_file/explicit/tb/seq_lib//reg_seq_write_read_t1.svh(26) @ 1370: uvm_test_top.rf_env_h.rf_agent_h.rf_sqr@@seq_1 [After Write ctl reg] timer_1_reg = 1fcdcb91
# timer_y2r = 91
# timer_r2g = dcb
# timer_g2y = 1fc
# 
# UVM_INFO E:/UVM/APB_register_file/explicit/tb//apb_rf_scb.svh(15) @ 1385: uvm_test_top.rf_env_h.rf_scb [apb_rf_scb] data rcvd from mon_port, wr_enb =1, addr =8, din =1e, dout =0
# UVM_INFO E:/UVM/APB_register_file/explicit/tb//apb_rf_scb.svh(29) @ 1385: uvm_test_top.rf_env_h.rf_scb [apb_rf_scb] input data is stored in t1 1e
# UVM_INFO E:/UVM/APB_register_file/explicit/tb/seq_lib//reg_seq_write_read_t1.svh(33) @ 1410: uvm_test_top.rf_env_h.rf_agent_h.rf_sqr@@seq_1 [After read ctl reg] timer_1_reg = 1e
# timer_y2r = 1e
# timer_r2g = 0
# timer_g2y = 0
# 
# UVM_INFO E:/UVM/APB_register_file/explicit/tb//apb_rf_scb.svh(15) @ 1425: uvm_test_top.rf_env_h.rf_scb [apb_rf_scb] data rcvd from mon_port, wr_enb =0, addr =8, din =1e, dout =1e
# UVM_INFO E:/UVM/APB_register_file/explicit/tb//apb_rf_scb.svh(53) @ 1425: uvm_test_top.rf_env_h.rf_scb [PASSED] ==== TEST IS PASSED ====
# UVM_INFO E:/UVM/APB_register_file/explicit/tb//apb_rf_scb.svh(64) @ 1425: uvm_test_top.rf_env_h.rf_scb [apb_rf_scb] output data is 1e
# UVM_INFO E:/UVM/APB_register_file/explicit/tb/seq_lib//reg_seq_write_t1.svh(20) @ 1450: uvm_test_top.rf_env_h.rf_agent_h.rf_sqr@@seq_2 [After Write ctl reg] timer_1_reg = 1e
# timer_y2r = 1e
# timer_r2g = 0
# timer_g2y = 0
# 
# UVM_INFO E:/UVM/APB_register_file/explicit/tb//apb_rf_scb.svh(15) @ 1465: uvm_test_top.rf_env_h.rf_scb [apb_rf_scb] data rcvd from mon_port, wr_enb =1, addr =8, din =b2a993bb, dout =0
# UVM_INFO E:/UVM/APB_register_file/explicit/tb//apb_rf_scb.svh(29) @ 1465: uvm_test_top.rf_env_h.rf_scb [apb_rf_scb] input data is stored in t1 b2a993bb
# UVM_INFO E:/UVM/APB_register_file/explicit/tb/seq_lib//reg_seq_read_t1.svh(19) @ 1490: uvm_test_top.rf_env_h.rf_agent_h.rf_sqr@@seq_3 [After read ctl reg] timer_1_reg = b2a993bb
# timer_y2r = bb
# timer_r2g = 993
# timer_g2y = b2a
# 
# UVM_INFO E:/UVM/APB_register_file/explicit/tb/seq_lib//reg_seq_write_read_t1.svh(18) @ 1490: uvm_test_top.rf_env_h.rf_agent_h.rf_sqr@@seq_1 [Initial timer_1 reg] timer_1_reg = face5678
# timer_y2r = 78
# timer_r2g = e56
# timer_g2y = fac
# 
# UVM_INFO E:/UVM/APB_register_file/explicit/tb//apb_rf_scb.svh(15) @ 1505: uvm_test_top.rf_env_h.rf_scb [apb_rf_scb] data rcvd from mon_port, wr_enb =0, addr =8, din =b2a993bb, dout =b2a993bb
# UVM_INFO E:/UVM/APB_register_file/explicit/tb//apb_rf_scb.svh(53) @ 1505: uvm_test_top.rf_env_h.rf_scb [PASSED] ==== TEST IS PASSED ====
# UVM_INFO E:/UVM/APB_register_file/explicit/tb//apb_rf_scb.svh(64) @ 1505: uvm_test_top.rf_env_h.rf_scb [apb_rf_scb] output data is b2a993bb
# UVM_INFO E:/UVM/APB_register_file/explicit/tb/seq_lib//reg_seq_write_read_t1.svh(26) @ 1530: uvm_test_top.rf_env_h.rf_agent_h.rf_sqr@@seq_1 [After Write ctl reg] timer_1_reg = b2a993bb
# timer_y2r = bb
# timer_r2g = 993
# timer_g2y = b2a
# 
# UVM_INFO E:/UVM/APB_register_file/explicit/tb//apb_rf_scb.svh(15) @ 1545: uvm_test_top.rf_env_h.rf_scb [apb_rf_scb] data rcvd from mon_port, wr_enb =1, addr =8, din =12, dout =0
# UVM_INFO E:/UVM/APB_register_file/explicit/tb//apb_rf_scb.svh(29) @ 1545: uvm_test_top.rf_env_h.rf_scb [apb_rf_scb] input data is stored in t1 12
# UVM_INFO E:/UVM/APB_register_file/explicit/tb/seq_lib//reg_seq_write_read_t1.svh(33) @ 1570: uvm_test_top.rf_env_h.rf_agent_h.rf_sqr@@seq_1 [After read ctl reg] timer_1_reg = 12
# timer_y2r = 12
# timer_r2g = 0
# timer_g2y = 0
# 
# UVM_INFO E:/UVM/APB_register_file/explicit/tb//apb_rf_scb.svh(15) @ 1585: uvm_test_top.rf_env_h.rf_scb [apb_rf_scb] data rcvd from mon_port, wr_enb =0, addr =8, din =12, dout =12
# UVM_INFO E:/UVM/APB_register_file/explicit/tb//apb_rf_scb.svh(53) @ 1585: uvm_test_top.rf_env_h.rf_scb [PASSED] ==== TEST IS PASSED ====
# UVM_INFO E:/UVM/APB_register_file/explicit/tb//apb_rf_scb.svh(64) @ 1585: uvm_test_top.rf_env_h.rf_scb [apb_rf_scb] output data is 12
# UVM_INFO E:/UVM/APB_register_file/explicit/tb/seq_lib//reg_seq_write_t1.svh(20) @ 1610: uvm_test_top.rf_env_h.rf_agent_h.rf_sqr@@seq_2 [After Write ctl reg] timer_1_reg = 12
# timer_y2r = 12
# timer_r2g = 0
# timer_g2y = 0
# 
# UVM_INFO E:/UVM/APB_register_file/explicit/tb//apb_rf_scb.svh(15) @ 1625: uvm_test_top.rf_env_h.rf_scb [apb_rf_scb] data rcvd from mon_port, wr_enb =1, addr =8, din =1e603ebd, dout =0
# UVM_INFO E:/UVM/APB_register_file/explicit/tb//apb_rf_scb.svh(29) @ 1625: uvm_test_top.rf_env_h.rf_scb [apb_rf_scb] input data is stored in t1 1e603ebd
# UVM_INFO E:/UVM/APB_register_file/explicit/tb/seq_lib//reg_seq_read_t1.svh(19) @ 1650: uvm_test_top.rf_env_h.rf_agent_h.rf_sqr@@seq_3 [After read ctl reg] timer_1_reg = 1e603ebd
# timer_y2r = bd
# timer_r2g = 3e
# timer_g2y = 1e6
# 
# UVM_INFO E:/UVM/APB_register_file/explicit/tb/seq_lib//reg_seq_write_read_t1.svh(18) @ 1650: uvm_test_top.rf_env_h.rf_agent_h.rf_sqr@@seq_1 [Initial timer_1 reg] timer_1_reg = face5678
# timer_y2r = 78
# timer_r2g = e56
# timer_g2y = fac
# 
# UVM_INFO E:/UVM/APB_register_file/explicit/tb//apb_rf_scb.svh(15) @ 1665: uvm_test_top.rf_env_h.rf_scb [apb_rf_scb] data rcvd from mon_port, wr_enb =0, addr =8, din =1e603ebd, dout =1e603ebd
# UVM_INFO E:/UVM/APB_register_file/explicit/tb//apb_rf_scb.svh(53) @ 1665: uvm_test_top.rf_env_h.rf_scb [PASSED] ==== TEST IS PASSED ====
# UVM_INFO E:/UVM/APB_register_file/explicit/tb//apb_rf_scb.svh(64) @ 1665: uvm_test_top.rf_env_h.rf_scb [apb_rf_scb] output data is 1e603ebd
# UVM_INFO E:/UVM/APB_register_file/explicit/tb/seq_lib//reg_seq_write_read_t1.svh(26) @ 1690: uvm_test_top.rf_env_h.rf_agent_h.rf_sqr@@seq_1 [After Write ctl reg] timer_1_reg = 1e603ebd
# timer_y2r = bd
# timer_r2g = 3e
# timer_g2y = 1e6
# 
# UVM_INFO E:/UVM/APB_register_file/explicit/tb//apb_rf_scb.svh(15) @ 1705: uvm_test_top.rf_env_h.rf_scb [apb_rf_scb] data rcvd from mon_port, wr_enb =1, addr =8, din =10, dout =0
# UVM_INFO E:/UVM/APB_register_file/explicit/tb//apb_rf_scb.svh(29) @ 1705: uvm_test_top.rf_env_h.rf_scb [apb_rf_scb] input data is stored in t1 10
# UVM_INFO E:/UVM/APB_register_file/explicit/tb/seq_lib//reg_seq_write_read_t1.svh(33) @ 1730: uvm_test_top.rf_env_h.rf_agent_h.rf_sqr@@seq_1 [After read ctl reg] timer_1_reg = 10
# timer_y2r = 10
# timer_r2g = 0
# timer_g2y = 0
# 
# UVM_INFO E:/UVM/APB_register_file/explicit/tb//apb_rf_scb.svh(15) @ 1745: uvm_test_top.rf_env_h.rf_scb [apb_rf_scb] data rcvd from mon_port, wr_enb =0, addr =8, din =10, dout =10
# UVM_INFO E:/UVM/APB_register_file/explicit/tb//apb_rf_scb.svh(53) @ 1745: uvm_test_top.rf_env_h.rf_scb [PASSED] ==== TEST IS PASSED ====
# UVM_INFO E:/UVM/APB_register_file/explicit/tb//apb_rf_scb.svh(64) @ 1745: uvm_test_top.rf_env_h.rf_scb [apb_rf_scb] output data is 10
# UVM_INFO E:/UVM/APB_register_file/explicit/tb/seq_lib//reg_seq_write_t1.svh(20) @ 1770: uvm_test_top.rf_env_h.rf_agent_h.rf_sqr@@seq_2 [After Write ctl reg] timer_1_reg = 10
# timer_y2r = 10
# timer_r2g = 0
# timer_g2y = 0
# 
# UVM_INFO E:/UVM/APB_register_file/explicit/tb//apb_rf_scb.svh(15) @ 1785: uvm_test_top.rf_env_h.rf_scb [apb_rf_scb] data rcvd from mon_port, wr_enb =1, addr =8, din =1e32074, dout =0
# UVM_INFO E:/UVM/APB_register_file/explicit/tb//apb_rf_scb.svh(29) @ 1785: uvm_test_top.rf_env_h.rf_scb [apb_rf_scb] input data is stored in t1 1e32074
# UVM_INFO E:/UVM/APB_register_file/explicit/tb/seq_lib//reg_seq_read_t1.svh(19) @ 1810: uvm_test_top.rf_env_h.rf_agent_h.rf_sqr@@seq_3 [After read ctl reg] timer_1_reg = 1e32074
# timer_y2r = 74
# timer_r2g = 320
# timer_g2y = 1e
# 
# UVM_INFO E:/UVM/APB_register_file/explicit/tb/seq_lib//reg_seq_write_read_t1.svh(18) @ 1810: uvm_test_top.rf_env_h.rf_agent_h.rf_sqr@@seq_1 [Initial timer_1 reg] timer_1_reg = face5678
# timer_y2r = 78
# timer_r2g = e56
# timer_g2y = fac
# 
# UVM_INFO E:/UVM/APB_register_file/explicit/tb//apb_rf_scb.svh(15) @ 1825: uvm_test_top.rf_env_h.rf_scb [apb_rf_scb] data rcvd from mon_port, wr_enb =0, addr =8, din =1e32074, dout =1e32074
# UVM_INFO E:/UVM/APB_register_file/explicit/tb//apb_rf_scb.svh(53) @ 1825: uvm_test_top.rf_env_h.rf_scb [PASSED] ==== TEST IS PASSED ====
# UVM_INFO E:/UVM/APB_register_file/explicit/tb//apb_rf_scb.svh(64) @ 1825: uvm_test_top.rf_env_h.rf_scb [apb_rf_scb] output data is 1e32074
# UVM_INFO E:/UVM/APB_register_file/explicit/tb/seq_lib//reg_seq_write_read_t1.svh(26) @ 1850: uvm_test_top.rf_env_h.rf_agent_h.rf_sqr@@seq_1 [After Write ctl reg] timer_1_reg = 1e32074
# timer_y2r = 74
# timer_r2g = 320
# timer_g2y = 1e
# 
# UVM_INFO E:/UVM/APB_register_file/explicit/tb//apb_rf_scb.svh(15) @ 1865: uvm_test_top.rf_env_h.rf_scb [apb_rf_scb] data rcvd from mon_port, wr_enb =1, addr =8, din =6, dout =0
# UVM_INFO E:/UVM/APB_register_file/explicit/tb//apb_rf_scb.svh(29) @ 1865: uvm_test_top.rf_env_h.rf_scb [apb_rf_scb] input data is stored in t1 6
# UVM_INFO E:/UVM/APB_register_file/explicit/tb/seq_lib//reg_seq_write_read_t1.svh(33) @ 1890: uvm_test_top.rf_env_h.rf_agent_h.rf_sqr@@seq_1 [After read ctl reg] timer_1_reg = 6
# timer_y2r = 6
# timer_r2g = 0
# timer_g2y = 0
# 
# UVM_INFO E:/UVM/APB_register_file/explicit/tb//apb_rf_scb.svh(15) @ 1905: uvm_test_top.rf_env_h.rf_scb [apb_rf_scb] data rcvd from mon_port, wr_enb =0, addr =8, din =6, dout =6
# UVM_INFO E:/UVM/APB_register_file/explicit/tb//apb_rf_scb.svh(53) @ 1905: uvm_test_top.rf_env_h.rf_scb [PASSED] ==== TEST IS PASSED ====
# UVM_INFO E:/UVM/APB_register_file/explicit/tb//apb_rf_scb.svh(64) @ 1905: uvm_test_top.rf_env_h.rf_scb [apb_rf_scb] output data is 6
# UVM_INFO E:/UVM/APB_register_file/explicit/tb/seq_lib//reg_seq_write_t1.svh(20) @ 1930: uvm_test_top.rf_env_h.rf_agent_h.rf_sqr@@seq_2 [After Write ctl reg] timer_1_reg = 6
# timer_y2r = 6
# timer_r2g = 0
# timer_g2y = 0
# 
# UVM_INFO E:/UVM/APB_register_file/explicit/tb//apb_rf_scb.svh(15) @ 1945: uvm_test_top.rf_env_h.rf_scb [apb_rf_scb] data rcvd from mon_port, wr_enb =1, addr =8, din =5df5c6d6, dout =0
# UVM_INFO E:/UVM/APB_register_file/explicit/tb//apb_rf_scb.svh(29) @ 1945: uvm_test_top.rf_env_h.rf_scb [apb_rf_scb] input data is stored in t1 5df5c6d6
# UVM_INFO E:/UVM/APB_register_file/explicit/tb/seq_lib//reg_seq_read_t1.svh(19) @ 1970: uvm_test_top.rf_env_h.rf_agent_h.rf_sqr@@seq_3 [After read ctl reg] timer_1_reg = 5df5c6d6
# timer_y2r = d6
# timer_r2g = 5c6
# timer_g2y = 5df
# 
# UVM_INFO E:/UVM/APB_register_file/explicit/tb/seq_lib//reg_seq_write_read_t1.svh(18) @ 1970: uvm_test_top.rf_env_h.rf_agent_h.rf_sqr@@seq_1 [Initial timer_1 reg] timer_1_reg = face5678
# timer_y2r = 78
# timer_r2g = e56
# timer_g2y = fac
# 
# UVM_INFO E:/UVM/APB_register_file/explicit/tb//apb_rf_scb.svh(15) @ 1985: uvm_test_top.rf_env_h.rf_scb [apb_rf_scb] data rcvd from mon_port, wr_enb =0, addr =8, din =5df5c6d6, dout =5df5c6d6
# UVM_INFO E:/UVM/APB_register_file/explicit/tb//apb_rf_scb.svh(53) @ 1985: uvm_test_top.rf_env_h.rf_scb [PASSED] ==== TEST IS PASSED ====
# UVM_INFO E:/UVM/APB_register_file/explicit/tb//apb_rf_scb.svh(64) @ 1985: uvm_test_top.rf_env_h.rf_scb [apb_rf_scb] output data is 5df5c6d6
# UVM_INFO E:/UVM/APB_register_file/explicit/tb/seq_lib//reg_seq_write_read_t1.svh(26) @ 2010: uvm_test_top.rf_env_h.rf_agent_h.rf_sqr@@seq_1 [After Write ctl reg] timer_1_reg = 5df5c6d6
# timer_y2r = d6
# timer_r2g = 5c6
# timer_g2y = 5df
# 
# UVM_INFO E:/UVM/APB_register_file/explicit/tb//apb_rf_scb.svh(15) @ 2025: uvm_test_top.rf_env_h.rf_scb [apb_rf_scb] data rcvd from mon_port, wr_enb =1, addr =8, din =d, dout =0
# UVM_INFO E:/UVM/APB_register_file/explicit/tb//apb_rf_scb.svh(29) @ 2025: uvm_test_top.rf_env_h.rf_scb [apb_rf_scb] input data is stored in t1 d
# UVM_INFO E:/UVM/APB_register_file/explicit/tb/seq_lib//reg_seq_write_read_t1.svh(33) @ 2050: uvm_test_top.rf_env_h.rf_agent_h.rf_sqr@@seq_1 [After read ctl reg] timer_1_reg = d
# timer_y2r = d
# timer_r2g = 0
# timer_g2y = 0
# 
# UVM_INFO E:/UVM/APB_register_file/explicit/tb//apb_rf_scb.svh(15) @ 2065: uvm_test_top.rf_env_h.rf_scb [apb_rf_scb] data rcvd from mon_port, wr_enb =0, addr =8, din =d, dout =d
# UVM_INFO E:/UVM/APB_register_file/explicit/tb//apb_rf_scb.svh(53) @ 2065: uvm_test_top.rf_env_h.rf_scb [PASSED] ==== TEST IS PASSED ====
# UVM_INFO E:/UVM/APB_register_file/explicit/tb//apb_rf_scb.svh(64) @ 2065: uvm_test_top.rf_env_h.rf_scb [apb_rf_scb] output data is d
# UVM_INFO E:/UVM/APB_register_file/explicit/tb/seq_lib//reg_seq_write_t1.svh(20) @ 2090: uvm_test_top.rf_env_h.rf_agent_h.rf_sqr@@seq_2 [After Write ctl reg] timer_1_reg = d
# timer_y2r = d
# timer_r2g = 0
# timer_g2y = 0
# 
# UVM_INFO E:/UVM/APB_register_file/explicit/tb//apb_rf_scb.svh(15) @ 2105: uvm_test_top.rf_env_h.rf_scb [apb_rf_scb] data rcvd from mon_port, wr_enb =1, addr =8, din =a381add4, dout =0
# UVM_INFO E:/UVM/APB_register_file/explicit/tb//apb_rf_scb.svh(29) @ 2105: uvm_test_top.rf_env_h.rf_scb [apb_rf_scb] input data is stored in t1 a381add4
# UVM_INFO E:/UVM/APB_register_file/explicit/tb/seq_lib//reg_seq_read_t1.svh(19) @ 2130: uvm_test_top.rf_env_h.rf_agent_h.rf_sqr@@seq_3 [After read ctl reg] timer_1_reg = a381add4
# timer_y2r = d4
# timer_r2g = 1ad
# timer_g2y = a38
# 
# UVM_INFO E:/UVM/APB_register_file/explicit/tb/seq_lib//reg_seq_write_read_t1.svh(18) @ 2130: uvm_test_top.rf_env_h.rf_agent_h.rf_sqr@@seq_1 [Initial timer_1 reg] timer_1_reg = face5678
# timer_y2r = 78
# timer_r2g = e56
# timer_g2y = fac
# 
# UVM_INFO E:/UVM/APB_register_file/explicit/tb//apb_rf_scb.svh(15) @ 2145: uvm_test_top.rf_env_h.rf_scb [apb_rf_scb] data rcvd from mon_port, wr_enb =0, addr =8, din =a381add4, dout =a381add4
# UVM_INFO E:/UVM/APB_register_file/explicit/tb//apb_rf_scb.svh(53) @ 2145: uvm_test_top.rf_env_h.rf_scb [PASSED] ==== TEST IS PASSED ====
# UVM_INFO E:/UVM/APB_register_file/explicit/tb//apb_rf_scb.svh(64) @ 2145: uvm_test_top.rf_env_h.rf_scb [apb_rf_scb] output data is a381add4
# UVM_INFO E:/UVM/APB_register_file/explicit/tb/seq_lib//reg_seq_write_read_t1.svh(26) @ 2170: uvm_test_top.rf_env_h.rf_agent_h.rf_sqr@@seq_1 [After Write ctl reg] timer_1_reg = a381add4
# timer_y2r = d4
# timer_r2g = 1ad
# timer_g2y = a38
# 
# UVM_INFO E:/UVM/APB_register_file/explicit/tb//apb_rf_scb.svh(15) @ 2185: uvm_test_top.rf_env_h.rf_scb [apb_rf_scb] data rcvd from mon_port, wr_enb =1, addr =8, din =7, dout =0
# UVM_INFO E:/UVM/APB_register_file/explicit/tb//apb_rf_scb.svh(29) @ 2185: uvm_test_top.rf_env_h.rf_scb [apb_rf_scb] input data is stored in t1 7
# UVM_INFO E:/UVM/APB_register_file/explicit/tb/seq_lib//reg_seq_write_read_t1.svh(33) @ 2210: uvm_test_top.rf_env_h.rf_agent_h.rf_sqr@@seq_1 [After read ctl reg] timer_1_reg = 7
# timer_y2r = 7
# timer_r2g = 0
# timer_g2y = 0
# 
# UVM_INFO E:/UVM/APB_register_file/explicit/tb//apb_rf_scb.svh(15) @ 2225: uvm_test_top.rf_env_h.rf_scb [apb_rf_scb] data rcvd from mon_port, wr_enb =0, addr =8, din =7, dout =7
# UVM_INFO E:/UVM/APB_register_file/explicit/tb//apb_rf_scb.svh(53) @ 2225: uvm_test_top.rf_env_h.rf_scb [PASSED] ==== TEST IS PASSED ====
# UVM_INFO E:/UVM/APB_register_file/explicit/tb//apb_rf_scb.svh(64) @ 2225: uvm_test_top.rf_env_h.rf_scb [apb_rf_scb] output data is 7
# UVM_INFO E:/UVM/APB_register_file/explicit/tb/seq_lib//reg_seq_write_t1.svh(20) @ 2250: uvm_test_top.rf_env_h.rf_agent_h.rf_sqr@@seq_2 [After Write ctl reg] timer_1_reg = 7
# timer_y2r = 7
# timer_r2g = 0
# timer_g2y = 0
# 
# UVM_INFO E:/UVM/APB_register_file/explicit/tb//apb_rf_scb.svh(15) @ 2265: uvm_test_top.rf_env_h.rf_scb [apb_rf_scb] data rcvd from mon_port, wr_enb =1, addr =8, din =248d0971, dout =0
# UVM_INFO E:/UVM/APB_register_file/explicit/tb//apb_rf_scb.svh(29) @ 2265: uvm_test_top.rf_env_h.rf_scb [apb_rf_scb] input data is stored in t1 248d0971
# UVM_INFO E:/UVM/APB_register_file/explicit/tb/seq_lib//reg_seq_read_t1.svh(19) @ 2290: uvm_test_top.rf_env_h.rf_agent_h.rf_sqr@@seq_3 [After read ctl reg] timer_1_reg = 248d0971
# timer_y2r = 71
# timer_r2g = d09
# timer_g2y = 248
# 
# UVM_INFO E:/UVM/APB_register_file/explicit/tb/seq_lib//reg_seq_write_read_t1.svh(18) @ 2290: uvm_test_top.rf_env_h.rf_agent_h.rf_sqr@@seq_1 [Initial timer_1 reg] timer_1_reg = face5678
# timer_y2r = 78
# timer_r2g = e56
# timer_g2y = fac
# 
# UVM_INFO E:/UVM/APB_register_file/explicit/tb//apb_rf_scb.svh(15) @ 2305: uvm_test_top.rf_env_h.rf_scb [apb_rf_scb] data rcvd from mon_port, wr_enb =0, addr =8, din =248d0971, dout =248d0971
# UVM_INFO E:/UVM/APB_register_file/explicit/tb//apb_rf_scb.svh(53) @ 2305: uvm_test_top.rf_env_h.rf_scb [PASSED] ==== TEST IS PASSED ====
# UVM_INFO E:/UVM/APB_register_file/explicit/tb//apb_rf_scb.svh(64) @ 2305: uvm_test_top.rf_env_h.rf_scb [apb_rf_scb] output data is 248d0971
# UVM_INFO E:/UVM/APB_register_file/explicit/tb/seq_lib//reg_seq_write_read_t1.svh(26) @ 2330: uvm_test_top.rf_env_h.rf_agent_h.rf_sqr@@seq_1 [After Write ctl reg] timer_1_reg = 248d0971
# timer_y2r = 71
# timer_r2g = d09
# timer_g2y = 248
# 
# UVM_INFO E:/UVM/APB_register_file/explicit/tb//apb_rf_scb.svh(15) @ 2345: uvm_test_top.rf_env_h.rf_scb [apb_rf_scb] data rcvd from mon_port, wr_enb =1, addr =8, din =2, dout =0
# UVM_INFO E:/UVM/APB_register_file/explicit/tb//apb_rf_scb.svh(29) @ 2345: uvm_test_top.rf_env_h.rf_scb [apb_rf_scb] input data is stored in t1 2
# UVM_INFO E:/UVM/APB_register_file/explicit/tb/seq_lib//reg_seq_write_read_t1.svh(33) @ 2370: uvm_test_top.rf_env_h.rf_agent_h.rf_sqr@@seq_1 [After read ctl reg] timer_1_reg = 2
# timer_y2r = 2
# timer_r2g = 0
# timer_g2y = 0
# 
# UVM_INFO E:/UVM/APB_register_file/explicit/tb//apb_rf_scb.svh(15) @ 2385: uvm_test_top.rf_env_h.rf_scb [apb_rf_scb] data rcvd from mon_port, wr_enb =0, addr =8, din =2, dout =2
# UVM_INFO E:/UVM/APB_register_file/explicit/tb//apb_rf_scb.svh(53) @ 2385: uvm_test_top.rf_env_h.rf_scb [PASSED] ==== TEST IS PASSED ====
# UVM_INFO E:/UVM/APB_register_file/explicit/tb//apb_rf_scb.svh(64) @ 2385: uvm_test_top.rf_env_h.rf_scb [apb_rf_scb] output data is 2
# UVM_INFO E:/UVM/APB_register_file/explicit/tb/seq_lib//reg_seq_write_t1.svh(20) @ 2410: uvm_test_top.rf_env_h.rf_agent_h.rf_sqr@@seq_2 [After Write ctl reg] timer_1_reg = 2
# timer_y2r = 2
# timer_r2g = 0
# timer_g2y = 0
# 
# UVM_INFO E:/UVM/APB_register_file/explicit/tb//apb_rf_scb.svh(15) @ 2425: uvm_test_top.rf_env_h.rf_scb [apb_rf_scb] data rcvd from mon_port, wr_enb =1, addr =8, din =6337cf73, dout =0
# UVM_INFO E:/UVM/APB_register_file/explicit/tb//apb_rf_scb.svh(29) @ 2425: uvm_test_top.rf_env_h.rf_scb [apb_rf_scb] input data is stored in t1 6337cf73
# UVM_INFO E:/UVM/APB_register_file/explicit/tb/seq_lib//reg_seq_read_t1.svh(19) @ 2450: uvm_test_top.rf_env_h.rf_agent_h.rf_sqr@@seq_3 [After read ctl reg] timer_1_reg = 6337cf73
# timer_y2r = 73
# timer_r2g = 7cf
# timer_g2y = 633
# 
# UVM_INFO E:/UVM/APB_register_file/explicit/tb/seq_lib//reg_seq_write_read_t1.svh(18) @ 2450: uvm_test_top.rf_env_h.rf_agent_h.rf_sqr@@seq_1 [Initial timer_1 reg] timer_1_reg = face5678
# timer_y2r = 78
# timer_r2g = e56
# timer_g2y = fac
# 
# UVM_INFO E:/UVM/APB_register_file/explicit/tb//apb_rf_scb.svh(15) @ 2465: uvm_test_top.rf_env_h.rf_scb [apb_rf_scb] data rcvd from mon_port, wr_enb =0, addr =8, din =6337cf73, dout =6337cf73
# UVM_INFO E:/UVM/APB_register_file/explicit/tb//apb_rf_scb.svh(53) @ 2465: uvm_test_top.rf_env_h.rf_scb [PASSED] ==== TEST IS PASSED ====
# UVM_INFO E:/UVM/APB_register_file/explicit/tb//apb_rf_scb.svh(64) @ 2465: uvm_test_top.rf_env_h.rf_scb [apb_rf_scb] output data is 6337cf73
# UVM_INFO E:/UVM/APB_register_file/explicit/tb/seq_lib//reg_seq_write_read_t1.svh(26) @ 2490: uvm_test_top.rf_env_h.rf_agent_h.rf_sqr@@seq_1 [After Write ctl reg] timer_1_reg = 6337cf73
# timer_y2r = 73
# timer_r2g = 7cf
# timer_g2y = 633
# 
# UVM_INFO E:/UVM/APB_register_file/explicit/tb//apb_rf_scb.svh(15) @ 2505: uvm_test_top.rf_env_h.rf_scb [apb_rf_scb] data rcvd from mon_port, wr_enb =1, addr =8, din =a, dout =0
# UVM_INFO E:/UVM/APB_register_file/explicit/tb//apb_rf_scb.svh(29) @ 2505: uvm_test_top.rf_env_h.rf_scb [apb_rf_scb] input data is stored in t1 a
# UVM_INFO E:/UVM/APB_register_file/explicit/tb/seq_lib//reg_seq_write_read_t1.svh(33) @ 2530: uvm_test_top.rf_env_h.rf_agent_h.rf_sqr@@seq_1 [After read ctl reg] timer_1_reg = a
# timer_y2r = a
# timer_r2g = 0
# timer_g2y = 0
# 
# UVM_INFO E:/UVM/APB_register_file/explicit/tb//apb_rf_scb.svh(15) @ 2545: uvm_test_top.rf_env_h.rf_scb [apb_rf_scb] data rcvd from mon_port, wr_enb =0, addr =8, din =a, dout =a
# UVM_INFO E:/UVM/APB_register_file/explicit/tb//apb_rf_scb.svh(53) @ 2545: uvm_test_top.rf_env_h.rf_scb [PASSED] ==== TEST IS PASSED ====
# UVM_INFO E:/UVM/APB_register_file/explicit/tb//apb_rf_scb.svh(64) @ 2545: uvm_test_top.rf_env_h.rf_scb [apb_rf_scb] output data is a
# UVM_INFO E:/UVM/APB_register_file/explicit/tb/seq_lib//reg_seq_write_t1.svh(20) @ 2570: uvm_test_top.rf_env_h.rf_agent_h.rf_sqr@@seq_2 [After Write ctl reg] timer_1_reg = a
# timer_y2r = a
# timer_r2g = 0
# timer_g2y = 0
# 
# UVM_INFO E:/UVM/APB_register_file/explicit/tb//apb_rf_scb.svh(15) @ 2585: uvm_test_top.rf_env_h.rf_scb [apb_rf_scb] data rcvd from mon_port, wr_enb =1, addr =8, din =c066fca5, dout =0
# UVM_INFO E:/UVM/APB_register_file/explicit/tb//apb_rf_scb.svh(29) @ 2585: uvm_test_top.rf_env_h.rf_scb [apb_rf_scb] input data is stored in t1 c066fca5
# UVM_INFO E:/UVM/APB_register_file/explicit/tb/seq_lib//reg_seq_read_t1.svh(19) @ 2610: uvm_test_top.rf_env_h.rf_agent_h.rf_sqr@@seq_3 [After read ctl reg] timer_1_reg = c066fca5
# timer_y2r = a5
# timer_r2g = 6fc
# timer_g2y = c06
# 
# UVM_INFO E:/UVM/APB_register_file/explicit/tb/seq_lib//reg_seq_write_read_t1.svh(18) @ 2610: uvm_test_top.rf_env_h.rf_agent_h.rf_sqr@@seq_1 [Initial timer_1 reg] timer_1_reg = face5678
# timer_y2r = 78
# timer_r2g = e56
# timer_g2y = fac
# 
# UVM_INFO E:/UVM/APB_register_file/explicit/tb//apb_rf_scb.svh(15) @ 2625: uvm_test_top.rf_env_h.rf_scb [apb_rf_scb] data rcvd from mon_port, wr_enb =0, addr =8, din =c066fca5, dout =c066fca5
# UVM_INFO E:/UVM/APB_register_file/explicit/tb//apb_rf_scb.svh(53) @ 2625: uvm_test_top.rf_env_h.rf_scb [PASSED] ==== TEST IS PASSED ====
# UVM_INFO E:/UVM/APB_register_file/explicit/tb//apb_rf_scb.svh(64) @ 2625: uvm_test_top.rf_env_h.rf_scb [apb_rf_scb] output data is c066fca5
# UVM_INFO E:/UVM/APB_register_file/explicit/tb/seq_lib//reg_seq_write_read_t1.svh(26) @ 2650: uvm_test_top.rf_env_h.rf_agent_h.rf_sqr@@seq_1 [After Write ctl reg] timer_1_reg = c066fca5
# timer_y2r = a5
# timer_r2g = 6fc
# timer_g2y = c06
# 
# UVM_INFO E:/UVM/APB_register_file/explicit/tb//apb_rf_scb.svh(15) @ 2665: uvm_test_top.rf_env_h.rf_scb [apb_rf_scb] data rcvd from mon_port, wr_enb =1, addr =8, din =3, dout =0
# UVM_INFO E:/UVM/APB_register_file/explicit/tb//apb_rf_scb.svh(29) @ 2665: uvm_test_top.rf_env_h.rf_scb [apb_rf_scb] input data is stored in t1 3
# UVM_INFO E:/UVM/APB_register_file/explicit/tb/seq_lib//reg_seq_write_read_t1.svh(33) @ 2690: uvm_test_top.rf_env_h.rf_agent_h.rf_sqr@@seq_1 [After read ctl reg] timer_1_reg = 3
# timer_y2r = 3
# timer_r2g = 0
# timer_g2y = 0
# 
# UVM_INFO E:/UVM/APB_register_file/explicit/tb//apb_rf_scb.svh(15) @ 2705: uvm_test_top.rf_env_h.rf_scb [apb_rf_scb] data rcvd from mon_port, wr_enb =0, addr =8, din =3, dout =3
# UVM_INFO E:/UVM/APB_register_file/explicit/tb//apb_rf_scb.svh(53) @ 2705: uvm_test_top.rf_env_h.rf_scb [PASSED] ==== TEST IS PASSED ====
# UVM_INFO E:/UVM/APB_register_file/explicit/tb//apb_rf_scb.svh(64) @ 2705: uvm_test_top.rf_env_h.rf_scb [apb_rf_scb] output data is 3
# UVM_INFO E:/UVM/APB_register_file/explicit/tb/seq_lib//reg_seq_write_t1.svh(20) @ 2730: uvm_test_top.rf_env_h.rf_agent_h.rf_sqr@@seq_2 [After Write ctl reg] timer_1_reg = 3
# timer_y2r = 3
# timer_r2g = 0
# timer_g2y = 0
# 
# UVM_INFO E:/UVM/APB_register_file/explicit/tb//apb_rf_scb.svh(15) @ 2745: uvm_test_top.rf_env_h.rf_scb [apb_rf_scb] data rcvd from mon_port, wr_enb =1, addr =8, din =9ea345dd, dout =0
# UVM_INFO E:/UVM/APB_register_file/explicit/tb//apb_rf_scb.svh(29) @ 2745: uvm_test_top.rf_env_h.rf_scb [apb_rf_scb] input data is stored in t1 9ea345dd
# UVM_INFO E:/UVM/APB_register_file/explicit/tb/seq_lib//reg_seq_read_t1.svh(19) @ 2770: uvm_test_top.rf_env_h.rf_agent_h.rf_sqr@@seq_3 [After read ctl reg] timer_1_reg = 9ea345dd
# timer_y2r = dd
# timer_r2g = 345
# timer_g2y = 9ea
# 
# UVM_INFO E:/UVM/APB_register_file/explicit/tb/seq_lib//reg_seq_write_read_t1.svh(18) @ 2770: uvm_test_top.rf_env_h.rf_agent_h.rf_sqr@@seq_1 [Initial timer_1 reg] timer_1_reg = face5678
# timer_y2r = 78
# timer_r2g = e56
# timer_g2y = fac
# 
# UVM_INFO E:/UVM/APB_register_file/explicit/tb//apb_rf_scb.svh(15) @ 2785: uvm_test_top.rf_env_h.rf_scb [apb_rf_scb] data rcvd from mon_port, wr_enb =0, addr =8, din =9ea345dd, dout =9ea345dd
# UVM_INFO E:/UVM/APB_register_file/explicit/tb//apb_rf_scb.svh(53) @ 2785: uvm_test_top.rf_env_h.rf_scb [PASSED] ==== TEST IS PASSED ====
# UVM_INFO E:/UVM/APB_register_file/explicit/tb//apb_rf_scb.svh(64) @ 2785: uvm_test_top.rf_env_h.rf_scb [apb_rf_scb] output data is 9ea345dd
# UVM_INFO E:/UVM/APB_register_file/explicit/tb/seq_lib//reg_seq_write_read_t1.svh(26) @ 2810: uvm_test_top.rf_env_h.rf_agent_h.rf_sqr@@seq_1 [After Write ctl reg] timer_1_reg = 9ea345dd
# timer_y2r = dd
# timer_r2g = 345
# timer_g2y = 9ea
# 
# UVM_INFO E:/UVM/APB_register_file/explicit/tb//apb_rf_scb.svh(15) @ 2825: uvm_test_top.rf_env_h.rf_scb [apb_rf_scb] data rcvd from mon_port, wr_enb =1, addr =8, din =2, dout =0
# UVM_INFO E:/UVM/APB_register_file/explicit/tb//apb_rf_scb.svh(29) @ 2825: uvm_test_top.rf_env_h.rf_scb [apb_rf_scb] input data is stored in t1 2
# UVM_INFO E:/UVM/APB_register_file/explicit/tb/seq_lib//reg_seq_write_read_t1.svh(33) @ 2850: uvm_test_top.rf_env_h.rf_agent_h.rf_sqr@@seq_1 [After read ctl reg] timer_1_reg = 2
# timer_y2r = 2
# timer_r2g = 0
# timer_g2y = 0
# 
# UVM_INFO E:/UVM/APB_register_file/explicit/tb//apb_rf_scb.svh(15) @ 2865: uvm_test_top.rf_env_h.rf_scb [apb_rf_scb] data rcvd from mon_port, wr_enb =0, addr =8, din =2, dout =2
# UVM_INFO E:/UVM/APB_register_file/explicit/tb//apb_rf_scb.svh(53) @ 2865: uvm_test_top.rf_env_h.rf_scb [PASSED] ==== TEST IS PASSED ====
# UVM_INFO E:/UVM/APB_register_file/explicit/tb//apb_rf_scb.svh(64) @ 2865: uvm_test_top.rf_env_h.rf_scb [apb_rf_scb] output data is 2
# UVM_INFO E:/UVM/APB_register_file/explicit/tb/seq_lib//reg_seq_write_t1.svh(20) @ 2890: uvm_test_top.rf_env_h.rf_agent_h.rf_sqr@@seq_2 [After Write ctl reg] timer_1_reg = 2
# timer_y2r = 2
# timer_r2g = 0
# timer_g2y = 0
# 
# UVM_INFO E:/UVM/APB_register_file/explicit/tb//apb_rf_scb.svh(15) @ 2905: uvm_test_top.rf_env_h.rf_scb [apb_rf_scb] data rcvd from mon_port, wr_enb =1, addr =8, din =e33f3251, dout =0
# UVM_INFO E:/UVM/APB_register_file/explicit/tb//apb_rf_scb.svh(29) @ 2905: uvm_test_top.rf_env_h.rf_scb [apb_rf_scb] input data is stored in t1 e33f3251
# UVM_INFO E:/UVM/APB_register_file/explicit/tb/seq_lib//reg_seq_read_t1.svh(19) @ 2930: uvm_test_top.rf_env_h.rf_agent_h.rf_sqr@@seq_3 [After read ctl reg] timer_1_reg = e33f3251
# timer_y2r = 51
# timer_r2g = f32
# timer_g2y = e33
# 
# UVM_INFO E:/UVM/APB_register_file/explicit/tb/seq_lib//reg_seq_write_read_t1.svh(18) @ 2930: uvm_test_top.rf_env_h.rf_agent_h.rf_sqr@@seq_1 [Initial timer_1 reg] timer_1_reg = face5678
# timer_y2r = 78
# timer_r2g = e56
# timer_g2y = fac
# 
# UVM_INFO E:/UVM/APB_register_file/explicit/tb//apb_rf_scb.svh(15) @ 2945: uvm_test_top.rf_env_h.rf_scb [apb_rf_scb] data rcvd from mon_port, wr_enb =0, addr =8, din =e33f3251, dout =e33f3251
# UVM_INFO E:/UVM/APB_register_file/explicit/tb//apb_rf_scb.svh(53) @ 2945: uvm_test_top.rf_env_h.rf_scb [PASSED] ==== TEST IS PASSED ====
# UVM_INFO E:/UVM/APB_register_file/explicit/tb//apb_rf_scb.svh(64) @ 2945: uvm_test_top.rf_env_h.rf_scb [apb_rf_scb] output data is e33f3251
# UVM_INFO E:/UVM/APB_register_file/explicit/tb/seq_lib//reg_seq_write_read_t1.svh(26) @ 2970: uvm_test_top.rf_env_h.rf_agent_h.rf_sqr@@seq_1 [After Write ctl reg] timer_1_reg = e33f3251
# timer_y2r = 51
# timer_r2g = f32
# timer_g2y = e33
# 
# UVM_INFO E:/UVM/APB_register_file/explicit/tb//apb_rf_scb.svh(15) @ 2985: uvm_test_top.rf_env_h.rf_scb [apb_rf_scb] data rcvd from mon_port, wr_enb =1, addr =8, din =14, dout =0
# UVM_INFO E:/UVM/APB_register_file/explicit/tb//apb_rf_scb.svh(29) @ 2985: uvm_test_top.rf_env_h.rf_scb [apb_rf_scb] input data is stored in t1 14
# UVM_INFO E:/UVM/APB_register_file/explicit/tb/seq_lib//reg_seq_write_read_t1.svh(33) @ 3010: uvm_test_top.rf_env_h.rf_agent_h.rf_sqr@@seq_1 [After read ctl reg] timer_1_reg = 14
# timer_y2r = 14
# timer_r2g = 0
# timer_g2y = 0
# 
# UVM_INFO E:/UVM/APB_register_file/explicit/tb//apb_rf_scb.svh(15) @ 3025: uvm_test_top.rf_env_h.rf_scb [apb_rf_scb] data rcvd from mon_port, wr_enb =0, addr =8, din =14, dout =14
# UVM_INFO E:/UVM/APB_register_file/explicit/tb//apb_rf_scb.svh(53) @ 3025: uvm_test_top.rf_env_h.rf_scb [PASSED] ==== TEST IS PASSED ====
# UVM_INFO E:/UVM/APB_register_file/explicit/tb//apb_rf_scb.svh(64) @ 3025: uvm_test_top.rf_env_h.rf_scb [apb_rf_scb] output data is 14
# UVM_INFO E:/UVM/APB_register_file/explicit/tb/seq_lib//reg_seq_write_t1.svh(20) @ 3050: uvm_test_top.rf_env_h.rf_agent_h.rf_sqr@@seq_2 [After Write ctl reg] timer_1_reg = 14
# timer_y2r = 14
# timer_r2g = 0
# timer_g2y = 0
# 
# UVM_INFO E:/UVM/APB_register_file/explicit/tb//apb_rf_scb.svh(15) @ 3065: uvm_test_top.rf_env_h.rf_scb [apb_rf_scb] data rcvd from mon_port, wr_enb =1, addr =8, din =2e58f565, dout =0
# UVM_INFO E:/UVM/APB_register_file/explicit/tb//apb_rf_scb.svh(29) @ 3065: uvm_test_top.rf_env_h.rf_scb [apb_rf_scb] input data is stored in t1 2e58f565
# UVM_INFO E:/UVM/APB_register_file/explicit/tb/seq_lib//reg_seq_read_t1.svh(19) @ 3090: uvm_test_top.rf_env_h.rf_agent_h.rf_sqr@@seq_3 [After read ctl reg] timer_1_reg = 2e58f565
# timer_y2r = 65
# timer_r2g = 8f5
# timer_g2y = 2e5
# 
# UVM_INFO E:/UVM/APB_register_file/explicit/tb/seq_lib//reg_seq_write_read_t1.svh(18) @ 3090: uvm_test_top.rf_env_h.rf_agent_h.rf_sqr@@seq_1 [Initial timer_1 reg] timer_1_reg = face5678
# timer_y2r = 78
# timer_r2g = e56
# timer_g2y = fac
# 
# UVM_INFO E:/UVM/APB_register_file/explicit/tb//apb_rf_scb.svh(15) @ 3105: uvm_test_top.rf_env_h.rf_scb [apb_rf_scb] data rcvd from mon_port, wr_enb =0, addr =8, din =2e58f565, dout =2e58f565
# UVM_INFO E:/UVM/APB_register_file/explicit/tb//apb_rf_scb.svh(53) @ 3105: uvm_test_top.rf_env_h.rf_scb [PASSED] ==== TEST IS PASSED ====
# UVM_INFO E:/UVM/APB_register_file/explicit/tb//apb_rf_scb.svh(64) @ 3105: uvm_test_top.rf_env_h.rf_scb [apb_rf_scb] output data is 2e58f565
# UVM_INFO E:/UVM/APB_register_file/explicit/tb/seq_lib//reg_seq_write_read_t1.svh(26) @ 3130: uvm_test_top.rf_env_h.rf_agent_h.rf_sqr@@seq_1 [After Write ctl reg] timer_1_reg = 2e58f565
# timer_y2r = 65
# timer_r2g = 8f5
# timer_g2y = 2e5
# 
# UVM_INFO E:/UVM/APB_register_file/explicit/tb//apb_rf_scb.svh(15) @ 3145: uvm_test_top.rf_env_h.rf_scb [apb_rf_scb] data rcvd from mon_port, wr_enb =1, addr =8, din =14, dout =0
# UVM_INFO E:/UVM/APB_register_file/explicit/tb//apb_rf_scb.svh(29) @ 3145: uvm_test_top.rf_env_h.rf_scb [apb_rf_scb] input data is stored in t1 14
# UVM_INFO E:/UVM/APB_register_file/explicit/tb/seq_lib//reg_seq_write_read_t1.svh(33) @ 3170: uvm_test_top.rf_env_h.rf_agent_h.rf_sqr@@seq_1 [After read ctl reg] timer_1_reg = 14
# timer_y2r = 14
# timer_r2g = 0
# timer_g2y = 0
# 
# UVM_INFO E:/UVM/APB_register_file/explicit/tb//apb_rf_scb.svh(15) @ 3185: uvm_test_top.rf_env_h.rf_scb [apb_rf_scb] data rcvd from mon_port, wr_enb =0, addr =8, din =14, dout =14
# UVM_INFO E:/UVM/APB_register_file/explicit/tb//apb_rf_scb.svh(53) @ 3185: uvm_test_top.rf_env_h.rf_scb [PASSED] ==== TEST IS PASSED ====
# UVM_INFO E:/UVM/APB_register_file/explicit/tb//apb_rf_scb.svh(64) @ 3185: uvm_test_top.rf_env_h.rf_scb [apb_rf_scb] output data is 14
# UVM_INFO E:/UVM/APB_register_file/explicit/tb/seq_lib//reg_seq_write_t1.svh(20) @ 3210: uvm_test_top.rf_env_h.rf_agent_h.rf_sqr@@seq_2 [After Write ctl reg] timer_1_reg = 14
# timer_y2r = 14
# timer_r2g = 0
# timer_g2y = 0
# 
# UVM_INFO E:/UVM/APB_register_file/explicit/tb//apb_rf_scb.svh(15) @ 3225: uvm_test_top.rf_env_h.rf_scb [apb_rf_scb] data rcvd from mon_port, wr_enb =1, addr =8, din =ee2545cb, dout =0
# UVM_INFO E:/UVM/APB_register_file/explicit/tb//apb_rf_scb.svh(29) @ 3225: uvm_test_top.rf_env_h.rf_scb [apb_rf_scb] input data is stored in t1 ee2545cb
# UVM_INFO E:/UVM/APB_register_file/explicit/tb/seq_lib//reg_seq_read_t1.svh(19) @ 3250: uvm_test_top.rf_env_h.rf_agent_h.rf_sqr@@seq_3 [After read ctl reg] timer_1_reg = ee2545cb
# timer_y2r = cb
# timer_r2g = 545
# timer_g2y = ee2
# 
# UVM_INFO E:/UVM/APB_register_file/explicit/tb/seq_lib//reg_seq_write_read_t1.svh(18) @ 3250: uvm_test_top.rf_env_h.rf_agent_h.rf_sqr@@seq_1 [Initial timer_1 reg] timer_1_reg = face5678
# timer_y2r = 78
# timer_r2g = e56
# timer_g2y = fac
# 
# UVM_INFO E:/UVM/APB_register_file/explicit/tb//apb_rf_scb.svh(15) @ 3265: uvm_test_top.rf_env_h.rf_scb [apb_rf_scb] data rcvd from mon_port, wr_enb =0, addr =8, din =ee2545cb, dout =ee2545cb
# UVM_INFO E:/UVM/APB_register_file/explicit/tb//apb_rf_scb.svh(53) @ 3265: uvm_test_top.rf_env_h.rf_scb [PASSED] ==== TEST IS PASSED ====
# UVM_INFO E:/UVM/APB_register_file/explicit/tb//apb_rf_scb.svh(64) @ 3265: uvm_test_top.rf_env_h.rf_scb [apb_rf_scb] output data is ee2545cb
# UVM_INFO E:/UVM/APB_register_file/explicit/tb/seq_lib//reg_seq_write_read_t1.svh(26) @ 3290: uvm_test_top.rf_env_h.rf_agent_h.rf_sqr@@seq_1 [After Write ctl reg] timer_1_reg = ee2545cb
# timer_y2r = cb
# timer_r2g = 545
# timer_g2y = ee2
# 
# UVM_INFO E:/UVM/APB_register_file/explicit/tb//apb_rf_scb.svh(15) @ 3305: uvm_test_top.rf_env_h.rf_scb [apb_rf_scb] data rcvd from mon_port, wr_enb =1, addr =8, din =a, dout =0
# UVM_INFO E:/UVM/APB_register_file/explicit/tb//apb_rf_scb.svh(29) @ 3305: uvm_test_top.rf_env_h.rf_scb [apb_rf_scb] input data is stored in t1 a
# UVM_INFO E:/UVM/APB_register_file/explicit/tb/seq_lib//reg_seq_write_read_t1.svh(33) @ 3330: uvm_test_top.rf_env_h.rf_agent_h.rf_sqr@@seq_1 [After read ctl reg] timer_1_reg = a
# timer_y2r = a
# timer_r2g = 0
# timer_g2y = 0
# 
# UVM_INFO E:/UVM/APB_register_file/explicit/tb//apb_rf_scb.svh(15) @ 3345: uvm_test_top.rf_env_h.rf_scb [apb_rf_scb] data rcvd from mon_port, wr_enb =0, addr =8, din =a, dout =a
# UVM_INFO E:/UVM/APB_register_file/explicit/tb//apb_rf_scb.svh(53) @ 3345: uvm_test_top.rf_env_h.rf_scb [PASSED] ==== TEST IS PASSED ====
# UVM_INFO E:/UVM/APB_register_file/explicit/tb//apb_rf_scb.svh(64) @ 3345: uvm_test_top.rf_env_h.rf_scb [apb_rf_scb] output data is a
# UVM_INFO E:/UVM/APB_register_file/explicit/tb/seq_lib//reg_seq_write_t1.svh(20) @ 3370: uvm_test_top.rf_env_h.rf_agent_h.rf_sqr@@seq_2 [After Write ctl reg] timer_1_reg = a
# timer_y2r = a
# timer_r2g = 0
# timer_g2y = 0
# 
# UVM_INFO E:/UVM/APB_register_file/explicit/tb//apb_rf_scb.svh(15) @ 3385: uvm_test_top.rf_env_h.rf_scb [apb_rf_scb] data rcvd from mon_port, wr_enb =1, addr =8, din =ccd0672, dout =0
# UVM_INFO E:/UVM/APB_register_file/explicit/tb//apb_rf_scb.svh(29) @ 3385: uvm_test_top.rf_env_h.rf_scb [apb_rf_scb] input data is stored in t1 ccd0672
# UVM_INFO E:/UVM/APB_register_file/explicit/tb/seq_lib//reg_seq_read_t1.svh(19) @ 3410: uvm_test_top.rf_env_h.rf_agent_h.rf_sqr@@seq_3 [After read ctl reg] timer_1_reg = ccd0672
# timer_y2r = 72
# timer_r2g = d06
# timer_g2y = cc
# 
# UVM_INFO E:/UVM/APB_register_file/explicit/tb/seq_lib//reg_seq_write_read_t1.svh(18) @ 3410: uvm_test_top.rf_env_h.rf_agent_h.rf_sqr@@seq_1 [Initial timer_1 reg] timer_1_reg = face5678
# timer_y2r = 78
# timer_r2g = e56
# timer_g2y = fac
# 
# UVM_INFO E:/UVM/APB_register_file/explicit/tb//apb_rf_scb.svh(15) @ 3425: uvm_test_top.rf_env_h.rf_scb [apb_rf_scb] data rcvd from mon_port, wr_enb =0, addr =8, din =ccd0672, dout =ccd0672
# UVM_INFO E:/UVM/APB_register_file/explicit/tb//apb_rf_scb.svh(53) @ 3425: uvm_test_top.rf_env_h.rf_scb [PASSED] ==== TEST IS PASSED ====
# UVM_INFO E:/UVM/APB_register_file/explicit/tb//apb_rf_scb.svh(64) @ 3425: uvm_test_top.rf_env_h.rf_scb [apb_rf_scb] output data is ccd0672
# UVM_INFO E:/UVM/APB_register_file/explicit/tb/seq_lib//reg_seq_write_read_t1.svh(26) @ 3450: uvm_test_top.rf_env_h.rf_agent_h.rf_sqr@@seq_1 [After Write ctl reg] timer_1_reg = ccd0672
# timer_y2r = 72
# timer_r2g = d06
# timer_g2y = cc
# 
# UVM_INFO E:/UVM/APB_register_file/explicit/tb//apb_rf_scb.svh(15) @ 3465: uvm_test_top.rf_env_h.rf_scb [apb_rf_scb] data rcvd from mon_port, wr_enb =1, addr =8, din =9, dout =0
# UVM_INFO E:/UVM/APB_register_file/explicit/tb//apb_rf_scb.svh(29) @ 3465: uvm_test_top.rf_env_h.rf_scb [apb_rf_scb] input data is stored in t1 9
# UVM_INFO E:/UVM/APB_register_file/explicit/tb/seq_lib//reg_seq_write_read_t1.svh(33) @ 3490: uvm_test_top.rf_env_h.rf_agent_h.rf_sqr@@seq_1 [After read ctl reg] timer_1_reg = 9
# timer_y2r = 9
# timer_r2g = 0
# timer_g2y = 0
# 
# UVM_INFO E:/UVM/APB_register_file/explicit/tb//apb_rf_scb.svh(15) @ 3505: uvm_test_top.rf_env_h.rf_scb [apb_rf_scb] data rcvd from mon_port, wr_enb =0, addr =8, din =9, dout =9
# UVM_INFO E:/UVM/APB_register_file/explicit/tb//apb_rf_scb.svh(53) @ 3505: uvm_test_top.rf_env_h.rf_scb [PASSED] ==== TEST IS PASSED ====
# UVM_INFO E:/UVM/APB_register_file/explicit/tb//apb_rf_scb.svh(64) @ 3505: uvm_test_top.rf_env_h.rf_scb [apb_rf_scb] output data is 9
# UVM_INFO E:/UVM/APB_register_file/explicit/tb/seq_lib//reg_seq_write_t1.svh(20) @ 3530: uvm_test_top.rf_env_h.rf_agent_h.rf_sqr@@seq_2 [After Write ctl reg] timer_1_reg = 9
# timer_y2r = 9
# timer_r2g = 0
# timer_g2y = 0
# 
# UVM_INFO E:/UVM/APB_register_file/explicit/tb//apb_rf_scb.svh(15) @ 3545: uvm_test_top.rf_env_h.rf_scb [apb_rf_scb] data rcvd from mon_port, wr_enb =1, addr =8, din =da8739d6, dout =0
# UVM_INFO E:/UVM/APB_register_file/explicit/tb//apb_rf_scb.svh(29) @ 3545: uvm_test_top.rf_env_h.rf_scb [apb_rf_scb] input data is stored in t1 da8739d6
# UVM_INFO E:/UVM/APB_register_file/explicit/tb/seq_lib//reg_seq_read_t1.svh(19) @ 3570: uvm_test_top.rf_env_h.rf_agent_h.rf_sqr@@seq_3 [After read ctl reg] timer_1_reg = da8739d6
# timer_y2r = d6
# timer_r2g = 739
# timer_g2y = da8
# 
# UVM_INFO E:/UVM/APB_register_file/explicit/tb/seq_lib//reg_seq_write_read_t1.svh(18) @ 3570: uvm_test_top.rf_env_h.rf_agent_h.rf_sqr@@seq_1 [Initial timer_1 reg] timer_1_reg = face5678
# timer_y2r = 78
# timer_r2g = e56
# timer_g2y = fac
# 
# UVM_INFO E:/UVM/APB_register_file/explicit/tb//apb_rf_scb.svh(15) @ 3585: uvm_test_top.rf_env_h.rf_scb [apb_rf_scb] data rcvd from mon_port, wr_enb =0, addr =8, din =da8739d6, dout =da8739d6
# UVM_INFO E:/UVM/APB_register_file/explicit/tb//apb_rf_scb.svh(53) @ 3585: uvm_test_top.rf_env_h.rf_scb [PASSED] ==== TEST IS PASSED ====
# UVM_INFO E:/UVM/APB_register_file/explicit/tb//apb_rf_scb.svh(64) @ 3585: uvm_test_top.rf_env_h.rf_scb [apb_rf_scb] output data is da8739d6
# UVM_INFO E:/UVM/APB_register_file/explicit/tb/seq_lib//reg_seq_write_read_t1.svh(26) @ 3610: uvm_test_top.rf_env_h.rf_agent_h.rf_sqr@@seq_1 [After Write ctl reg] timer_1_reg = da8739d6
# timer_y2r = d6
# timer_r2g = 739
# timer_g2y = da8
# 
# UVM_INFO E:/UVM/APB_register_file/explicit/tb//apb_rf_scb.svh(15) @ 3625: uvm_test_top.rf_env_h.rf_scb [apb_rf_scb] data rcvd from mon_port, wr_enb =1, addr =8, din =1, dout =0
# UVM_INFO E:/UVM/APB_register_file/explicit/tb//apb_rf_scb.svh(29) @ 3625: uvm_test_top.rf_env_h.rf_scb [apb_rf_scb] input data is stored in t1 1
# UVM_INFO E:/UVM/APB_register_file/explicit/tb/seq_lib//reg_seq_write_read_t1.svh(33) @ 3650: uvm_test_top.rf_env_h.rf_agent_h.rf_sqr@@seq_1 [After read ctl reg] timer_1_reg = 1
# timer_y2r = 1
# timer_r2g = 0
# timer_g2y = 0
# 
# UVM_INFO E:/UVM/APB_register_file/explicit/tb//apb_rf_scb.svh(15) @ 3665: uvm_test_top.rf_env_h.rf_scb [apb_rf_scb] data rcvd from mon_port, wr_enb =0, addr =8, din =1, dout =1
# UVM_INFO E:/UVM/APB_register_file/explicit/tb//apb_rf_scb.svh(53) @ 3665: uvm_test_top.rf_env_h.rf_scb [PASSED] ==== TEST IS PASSED ====
# UVM_INFO E:/UVM/APB_register_file/explicit/tb//apb_rf_scb.svh(64) @ 3665: uvm_test_top.rf_env_h.rf_scb [apb_rf_scb] output data is 1
# UVM_INFO E:/UVM/APB_register_file/explicit/tb/seq_lib//reg_seq_write_t1.svh(20) @ 3690: uvm_test_top.rf_env_h.rf_agent_h.rf_sqr@@seq_2 [After Write ctl reg] timer_1_reg = 1
# timer_y2r = 1
# timer_r2g = 0
# timer_g2y = 0
# 
# UVM_INFO E:/UVM/APB_register_file/explicit/tb//apb_rf_scb.svh(15) @ 3705: uvm_test_top.rf_env_h.rf_scb [apb_rf_scb] data rcvd from mon_port, wr_enb =1, addr =8, din =2db0ecd7, dout =0
# UVM_INFO E:/UVM/APB_register_file/explicit/tb//apb_rf_scb.svh(29) @ 3705: uvm_test_top.rf_env_h.rf_scb [apb_rf_scb] input data is stored in t1 2db0ecd7
# UVM_INFO E:/UVM/APB_register_file/explicit/tb/seq_lib//reg_seq_read_t1.svh(19) @ 3730: uvm_test_top.rf_env_h.rf_agent_h.rf_sqr@@seq_3 [After read ctl reg] timer_1_reg = 2db0ecd7
# timer_y2r = d7
# timer_r2g = ec
# timer_g2y = 2db
# 
# UVM_INFO E:/UVM/APB_register_file/explicit/tb/seq_lib//reg_seq_write_read_t1.svh(18) @ 3730: uvm_test_top.rf_env_h.rf_agent_h.rf_sqr@@seq_1 [Initial timer_1 reg] timer_1_reg = face5678
# timer_y2r = 78
# timer_r2g = e56
# timer_g2y = fac
# 
# UVM_INFO E:/UVM/APB_register_file/explicit/tb//apb_rf_scb.svh(15) @ 3745: uvm_test_top.rf_env_h.rf_scb [apb_rf_scb] data rcvd from mon_port, wr_enb =0, addr =8, din =2db0ecd7, dout =2db0ecd7
# UVM_INFO E:/UVM/APB_register_file/explicit/tb//apb_rf_scb.svh(53) @ 3745: uvm_test_top.rf_env_h.rf_scb [PASSED] ==== TEST IS PASSED ====
# UVM_INFO E:/UVM/APB_register_file/explicit/tb//apb_rf_scb.svh(64) @ 3745: uvm_test_top.rf_env_h.rf_scb [apb_rf_scb] output data is 2db0ecd7
# UVM_INFO E:/UVM/APB_register_file/explicit/tb/seq_lib//reg_seq_write_read_t1.svh(26) @ 3770: uvm_test_top.rf_env_h.rf_agent_h.rf_sqr@@seq_1 [After Write ctl reg] timer_1_reg = 2db0ecd7
# timer_y2r = d7
# timer_r2g = ec
# timer_g2y = 2db
# 
# UVM_INFO E:/UVM/APB_register_file/explicit/tb//apb_rf_scb.svh(15) @ 3785: uvm_test_top.rf_env_h.rf_scb [apb_rf_scb] data rcvd from mon_port, wr_enb =1, addr =8, din =1d, dout =0
# UVM_INFO E:/UVM/APB_register_file/explicit/tb//apb_rf_scb.svh(29) @ 3785: uvm_test_top.rf_env_h.rf_scb [apb_rf_scb] input data is stored in t1 1d
# UVM_INFO E:/UVM/APB_register_file/explicit/tb/seq_lib//reg_seq_write_read_t1.svh(33) @ 3810: uvm_test_top.rf_env_h.rf_agent_h.rf_sqr@@seq_1 [After read ctl reg] timer_1_reg = 1d
# timer_y2r = 1d
# timer_r2g = 0
# timer_g2y = 0
# 
# UVM_INFO E:/UVM/APB_register_file/explicit/tb//apb_rf_scb.svh(15) @ 3825: uvm_test_top.rf_env_h.rf_scb [apb_rf_scb] data rcvd from mon_port, wr_enb =0, addr =8, din =1d, dout =1d
# UVM_INFO E:/UVM/APB_register_file/explicit/tb//apb_rf_scb.svh(53) @ 3825: uvm_test_top.rf_env_h.rf_scb [PASSED] ==== TEST IS PASSED ====
# UVM_INFO E:/UVM/APB_register_file/explicit/tb//apb_rf_scb.svh(64) @ 3825: uvm_test_top.rf_env_h.rf_scb [apb_rf_scb] output data is 1d
# UVM_INFO E:/UVM/APB_register_file/explicit/tb/seq_lib//reg_seq_write_t1.svh(20) @ 3850: uvm_test_top.rf_env_h.rf_agent_h.rf_sqr@@seq_2 [After Write ctl reg] timer_1_reg = 1d
# timer_y2r = 1d
# timer_r2g = 0
# timer_g2y = 0
# 
# UVM_INFO E:/UVM/APB_register_file/explicit/tb//apb_rf_scb.svh(15) @ 3865: uvm_test_top.rf_env_h.rf_scb [apb_rf_scb] data rcvd from mon_port, wr_enb =1, addr =8, din =4feb2de5, dout =0
# UVM_INFO E:/UVM/APB_register_file/explicit/tb//apb_rf_scb.svh(29) @ 3865: uvm_test_top.rf_env_h.rf_scb [apb_rf_scb] input data is stored in t1 4feb2de5
# UVM_INFO E:/UVM/APB_register_file/explicit/tb/seq_lib//reg_seq_read_t1.svh(19) @ 3890: uvm_test_top.rf_env_h.rf_agent_h.rf_sqr@@seq_3 [After read ctl reg] timer_1_reg = 4feb2de5
# timer_y2r = e5
# timer_r2g = b2d
# timer_g2y = 4fe
# 
# UVM_INFO E:/UVM/APB_register_file/explicit/tb/seq_lib//reg_seq_write_read_t1.svh(18) @ 3890: uvm_test_top.rf_env_h.rf_agent_h.rf_sqr@@seq_1 [Initial timer_1 reg] timer_1_reg = face5678
# timer_y2r = 78
# timer_r2g = e56
# timer_g2y = fac
# 
# UVM_INFO E:/UVM/APB_register_file/explicit/tb//apb_rf_scb.svh(15) @ 3905: uvm_test_top.rf_env_h.rf_scb [apb_rf_scb] data rcvd from mon_port, wr_enb =0, addr =8, din =4feb2de5, dout =4feb2de5
# UVM_INFO E:/UVM/APB_register_file/explicit/tb//apb_rf_scb.svh(53) @ 3905: uvm_test_top.rf_env_h.rf_scb [PASSED] ==== TEST IS PASSED ====
# UVM_INFO E:/UVM/APB_register_file/explicit/tb//apb_rf_scb.svh(64) @ 3905: uvm_test_top.rf_env_h.rf_scb [apb_rf_scb] output data is 4feb2de5
# UVM_INFO E:/UVM/APB_register_file/explicit/tb/seq_lib//reg_seq_write_read_t1.svh(26) @ 3930: uvm_test_top.rf_env_h.rf_agent_h.rf_sqr@@seq_1 [After Write ctl reg] timer_1_reg = 4feb2de5
# timer_y2r = e5
# timer_r2g = b2d
# timer_g2y = 4fe
# 
# UVM_INFO E:/UVM/APB_register_file/explicit/tb//apb_rf_scb.svh(15) @ 3945: uvm_test_top.rf_env_h.rf_scb [apb_rf_scb] data rcvd from mon_port, wr_enb =1, addr =8, din =16, dout =0
# UVM_INFO E:/UVM/APB_register_file/explicit/tb//apb_rf_scb.svh(29) @ 3945: uvm_test_top.rf_env_h.rf_scb [apb_rf_scb] input data is stored in t1 16
# UVM_INFO E:/UVM/APB_register_file/explicit/tb/seq_lib//reg_seq_write_read_t1.svh(33) @ 3970: uvm_test_top.rf_env_h.rf_agent_h.rf_sqr@@seq_1 [After read ctl reg] timer_1_reg = 16
# timer_y2r = 16
# timer_r2g = 0
# timer_g2y = 0
# 
# UVM_INFO E:/UVM/APB_register_file/explicit/tb//apb_rf_scb.svh(15) @ 3985: uvm_test_top.rf_env_h.rf_scb [apb_rf_scb] data rcvd from mon_port, wr_enb =0, addr =8, din =16, dout =16
# UVM_INFO E:/UVM/APB_register_file/explicit/tb//apb_rf_scb.svh(53) @ 3985: uvm_test_top.rf_env_h.rf_scb [PASSED] ==== TEST IS PASSED ====
# UVM_INFO E:/UVM/APB_register_file/explicit/tb//apb_rf_scb.svh(64) @ 3985: uvm_test_top.rf_env_h.rf_scb [apb_rf_scb] output data is 16
# UVM_INFO E:/UVM/APB_register_file/explicit/tb/seq_lib//reg_seq_write_t1.svh(20) @ 4010: uvm_test_top.rf_env_h.rf_agent_h.rf_sqr@@seq_2 [After Write ctl reg] timer_1_reg = 16
# timer_y2r = 16
# timer_r2g = 0
# timer_g2y = 0
# 
# UVM_INFO E:/UVM/APB_register_file/explicit/tb//apb_rf_scb.svh(15) @ 4025: uvm_test_top.rf_env_h.rf_scb [apb_rf_scb] data rcvd from mon_port, wr_enb =1, addr =8, din =232830e2, dout =0
# UVM_INFO E:/UVM/APB_register_file/explicit/tb//apb_rf_scb.svh(29) @ 4025: uvm_test_top.rf_env_h.rf_scb [apb_rf_scb] input data is stored in t1 232830e2
# UVM_INFO E:/UVM/APB_register_file/explicit/tb/seq_lib//reg_seq_read_t1.svh(19) @ 4050: uvm_test_top.rf_env_h.rf_agent_h.rf_sqr@@seq_3 [After read ctl reg] timer_1_reg = 232830e2
# timer_y2r = e2
# timer_r2g = 830
# timer_g2y = 232
# 
# UVM_INFO E:/UVM/APB_register_file/explicit/tb/seq_lib//reg_seq_write_read_t1.svh(18) @ 4050: uvm_test_top.rf_env_h.rf_agent_h.rf_sqr@@seq_1 [Initial timer_1 reg] timer_1_reg = face5678
# timer_y2r = 78
# timer_r2g = e56
# timer_g2y = fac
# 
# UVM_INFO E:/UVM/APB_register_file/explicit/tb//apb_rf_scb.svh(15) @ 4065: uvm_test_top.rf_env_h.rf_scb [apb_rf_scb] data rcvd from mon_port, wr_enb =0, addr =8, din =232830e2, dout =232830e2
# UVM_INFO E:/UVM/APB_register_file/explicit/tb//apb_rf_scb.svh(53) @ 4065: uvm_test_top.rf_env_h.rf_scb [PASSED] ==== TEST IS PASSED ====
# UVM_INFO E:/UVM/APB_register_file/explicit/tb//apb_rf_scb.svh(64) @ 4065: uvm_test_top.rf_env_h.rf_scb [apb_rf_scb] output data is 232830e2
# UVM_INFO E:/UVM/APB_register_file/explicit/tb/seq_lib//reg_seq_write_read_t1.svh(26) @ 4090: uvm_test_top.rf_env_h.rf_agent_h.rf_sqr@@seq_1 [After Write ctl reg] timer_1_reg = 232830e2
# timer_y2r = e2
# timer_r2g = 830
# timer_g2y = 232
# 
# UVM_INFO E:/UVM/APB_register_file/explicit/tb//apb_rf_scb.svh(15) @ 4105: uvm_test_top.rf_env_h.rf_scb [apb_rf_scb] data rcvd from mon_port, wr_enb =1, addr =8, din =5, dout =0
# UVM_INFO E:/UVM/APB_register_file/explicit/tb//apb_rf_scb.svh(29) @ 4105: uvm_test_top.rf_env_h.rf_scb [apb_rf_scb] input data is stored in t1 5
# UVM_INFO E:/UVM/APB_register_file/explicit/tb/seq_lib//reg_seq_write_read_t1.svh(33) @ 4130: uvm_test_top.rf_env_h.rf_agent_h.rf_sqr@@seq_1 [After read ctl reg] timer_1_reg = 5
# timer_y2r = 5
# timer_r2g = 0
# timer_g2y = 0
# 
# UVM_INFO E:/UVM/APB_register_file/explicit/tb//apb_rf_scb.svh(15) @ 4145: uvm_test_top.rf_env_h.rf_scb [apb_rf_scb] data rcvd from mon_port, wr_enb =0, addr =8, din =5, dout =5
# UVM_INFO E:/UVM/APB_register_file/explicit/tb//apb_rf_scb.svh(53) @ 4145: uvm_test_top.rf_env_h.rf_scb [PASSED] ==== TEST IS PASSED ====
# UVM_INFO E:/UVM/APB_register_file/explicit/tb//apb_rf_scb.svh(64) @ 4145: uvm_test_top.rf_env_h.rf_scb [apb_rf_scb] output data is 5
# UVM_INFO E:/UVM/APB_register_file/explicit/tb/seq_lib//reg_seq_write_t1.svh(20) @ 4170: uvm_test_top.rf_env_h.rf_agent_h.rf_sqr@@seq_2 [After Write ctl reg] timer_1_reg = 5
# timer_y2r = 5
# timer_r2g = 0
# timer_g2y = 0
# 
# UVM_INFO E:/UVM/APB_register_file/explicit/tb//apb_rf_scb.svh(15) @ 4185: uvm_test_top.rf_env_h.rf_scb [apb_rf_scb] data rcvd from mon_port, wr_enb =1, addr =8, din =3f9d3717, dout =0
# UVM_INFO E:/UVM/APB_register_file/explicit/tb//apb_rf_scb.svh(29) @ 4185: uvm_test_top.rf_env_h.rf_scb [apb_rf_scb] input data is stored in t1 3f9d3717
# UVM_INFO E:/UVM/APB_register_file/explicit/tb/seq_lib//reg_seq_read_t1.svh(19) @ 4210: uvm_test_top.rf_env_h.rf_agent_h.rf_sqr@@seq_3 [After read ctl reg] timer_1_reg = 3f9d3717
# timer_y2r = 17
# timer_r2g = d37
# timer_g2y = 3f9
# 
# UVM_INFO E:/UVM/APB_register_file/explicit/tb/seq_lib//reg_seq_write_read_t1.svh(18) @ 4210: uvm_test_top.rf_env_h.rf_agent_h.rf_sqr@@seq_1 [Initial timer_1 reg] timer_1_reg = face5678
# timer_y2r = 78
# timer_r2g = e56
# timer_g2y = fac
# 
# UVM_INFO E:/UVM/APB_register_file/explicit/tb//apb_rf_scb.svh(15) @ 4225: uvm_test_top.rf_env_h.rf_scb [apb_rf_scb] data rcvd from mon_port, wr_enb =0, addr =8, din =3f9d3717, dout =3f9d3717
# UVM_INFO E:/UVM/APB_register_file/explicit/tb//apb_rf_scb.svh(53) @ 4225: uvm_test_top.rf_env_h.rf_scb [PASSED] ==== TEST IS PASSED ====
# UVM_INFO E:/UVM/APB_register_file/explicit/tb//apb_rf_scb.svh(64) @ 4225: uvm_test_top.rf_env_h.rf_scb [apb_rf_scb] output data is 3f9d3717
# UVM_INFO E:/UVM/APB_register_file/explicit/tb/seq_lib//reg_seq_write_read_t1.svh(26) @ 4250: uvm_test_top.rf_env_h.rf_agent_h.rf_sqr@@seq_1 [After Write ctl reg] timer_1_reg = 3f9d3717
# timer_y2r = 17
# timer_r2g = d37
# timer_g2y = 3f9
# 
# UVM_INFO E:/UVM/APB_register_file/explicit/tb//apb_rf_scb.svh(15) @ 4265: uvm_test_top.rf_env_h.rf_scb [apb_rf_scb] data rcvd from mon_port, wr_enb =1, addr =8, din =19, dout =0
# UVM_INFO E:/UVM/APB_register_file/explicit/tb//apb_rf_scb.svh(29) @ 4265: uvm_test_top.rf_env_h.rf_scb [apb_rf_scb] input data is stored in t1 19
# UVM_INFO E:/UVM/APB_register_file/explicit/tb/seq_lib//reg_seq_write_read_t1.svh(33) @ 4290: uvm_test_top.rf_env_h.rf_agent_h.rf_sqr@@seq_1 [After read ctl reg] timer_1_reg = 19
# timer_y2r = 19
# timer_r2g = 0
# timer_g2y = 0
# 
# UVM_INFO E:/UVM/APB_register_file/explicit/tb//apb_rf_scb.svh(15) @ 4305: uvm_test_top.rf_env_h.rf_scb [apb_rf_scb] data rcvd from mon_port, wr_enb =0, addr =8, din =19, dout =19
# UVM_INFO E:/UVM/APB_register_file/explicit/tb//apb_rf_scb.svh(53) @ 4305: uvm_test_top.rf_env_h.rf_scb [PASSED] ==== TEST IS PASSED ====
# UVM_INFO E:/UVM/APB_register_file/explicit/tb//apb_rf_scb.svh(64) @ 4305: uvm_test_top.rf_env_h.rf_scb [apb_rf_scb] output data is 19
# UVM_INFO E:/UVM/APB_register_file/explicit/tb/seq_lib//reg_seq_write_t1.svh(20) @ 4330: uvm_test_top.rf_env_h.rf_agent_h.rf_sqr@@seq_2 [After Write ctl reg] timer_1_reg = 19
# timer_y2r = 19
# timer_r2g = 0
# timer_g2y = 0
# 
# UVM_INFO E:/UVM/APB_register_file/explicit/tb//apb_rf_scb.svh(15) @ 4345: uvm_test_top.rf_env_h.rf_scb [apb_rf_scb] data rcvd from mon_port, wr_enb =1, addr =8, din =4a456e6f, dout =0
# UVM_INFO E:/UVM/APB_register_file/explicit/tb//apb_rf_scb.svh(29) @ 4345: uvm_test_top.rf_env_h.rf_scb [apb_rf_scb] input data is stored in t1 4a456e6f
# UVM_INFO E:/UVM/APB_register_file/explicit/tb/seq_lib//reg_seq_read_t1.svh(19) @ 4370: uvm_test_top.rf_env_h.rf_agent_h.rf_sqr@@seq_3 [After read ctl reg] timer_1_reg = 4a456e6f
# timer_y2r = 6f
# timer_r2g = 56e
# timer_g2y = 4a4
# 
# UVM_INFO E:/UVM/APB_register_file/explicit/tb/seq_lib//reg_seq_write_read_t1.svh(18) @ 4370: uvm_test_top.rf_env_h.rf_agent_h.rf_sqr@@seq_1 [Initial timer_1 reg] timer_1_reg = face5678
# timer_y2r = 78
# timer_r2g = e56
# timer_g2y = fac
# 
# UVM_INFO E:/UVM/APB_register_file/explicit/tb//apb_rf_scb.svh(15) @ 4385: uvm_test_top.rf_env_h.rf_scb [apb_rf_scb] data rcvd from mon_port, wr_enb =0, addr =8, din =4a456e6f, dout =4a456e6f
# UVM_INFO E:/UVM/APB_register_file/explicit/tb//apb_rf_scb.svh(53) @ 4385: uvm_test_top.rf_env_h.rf_scb [PASSED] ==== TEST IS PASSED ====
# UVM_INFO E:/UVM/APB_register_file/explicit/tb//apb_rf_scb.svh(64) @ 4385: uvm_test_top.rf_env_h.rf_scb [apb_rf_scb] output data is 4a456e6f
# UVM_INFO E:/UVM/APB_register_file/explicit/tb/seq_lib//reg_seq_write_read_t1.svh(26) @ 4410: uvm_test_top.rf_env_h.rf_agent_h.rf_sqr@@seq_1 [After Write ctl reg] timer_1_reg = 4a456e6f
# timer_y2r = 6f
# timer_r2g = 56e
# timer_g2y = 4a4
# 
# UVM_INFO E:/UVM/APB_register_file/explicit/tb//apb_rf_scb.svh(15) @ 4425: uvm_test_top.rf_env_h.rf_scb [apb_rf_scb] data rcvd from mon_port, wr_enb =1, addr =8, din =1d, dout =0
# UVM_INFO E:/UVM/APB_register_file/explicit/tb//apb_rf_scb.svh(29) @ 4425: uvm_test_top.rf_env_h.rf_scb [apb_rf_scb] input data is stored in t1 1d
# UVM_INFO E:/UVM/APB_register_file/explicit/tb/seq_lib//reg_seq_write_read_t1.svh(33) @ 4450: uvm_test_top.rf_env_h.rf_agent_h.rf_sqr@@seq_1 [After read ctl reg] timer_1_reg = 1d
# timer_y2r = 1d
# timer_r2g = 0
# timer_g2y = 0
# 
# UVM_INFO E:/UVM/APB_register_file/explicit/tb//apb_rf_scb.svh(15) @ 4465: uvm_test_top.rf_env_h.rf_scb [apb_rf_scb] data rcvd from mon_port, wr_enb =0, addr =8, din =1d, dout =1d
# UVM_INFO E:/UVM/APB_register_file/explicit/tb//apb_rf_scb.svh(53) @ 4465: uvm_test_top.rf_env_h.rf_scb [PASSED] ==== TEST IS PASSED ====
# UVM_INFO E:/UVM/APB_register_file/explicit/tb//apb_rf_scb.svh(64) @ 4465: uvm_test_top.rf_env_h.rf_scb [apb_rf_scb] output data is 1d
# UVM_INFO E:/UVM/APB_register_file/explicit/tb/seq_lib//reg_seq_write_t1.svh(20) @ 4490: uvm_test_top.rf_env_h.rf_agent_h.rf_sqr@@seq_2 [After Write ctl reg] timer_1_reg = 1d
# timer_y2r = 1d
# timer_r2g = 0
# timer_g2y = 0
# 
# UVM_INFO E:/UVM/APB_register_file/explicit/tb//apb_rf_scb.svh(15) @ 4505: uvm_test_top.rf_env_h.rf_scb [apb_rf_scb] data rcvd from mon_port, wr_enb =1, addr =8, din =47ae81b7, dout =0
# UVM_INFO E:/UVM/APB_register_file/explicit/tb//apb_rf_scb.svh(29) @ 4505: uvm_test_top.rf_env_h.rf_scb [apb_rf_scb] input data is stored in t1 47ae81b7
# UVM_INFO E:/UVM/APB_register_file/explicit/tb/seq_lib//reg_seq_read_t1.svh(19) @ 4530: uvm_test_top.rf_env_h.rf_agent_h.rf_sqr@@seq_3 [After read ctl reg] timer_1_reg = 47ae81b7
# timer_y2r = b7
# timer_r2g = e81
# timer_g2y = 47a
# 
# UVM_INFO E:/UVM/APB_register_file/explicit/tb/seq_lib//reg_seq_write_read_t1.svh(18) @ 4530: uvm_test_top.rf_env_h.rf_agent_h.rf_sqr@@seq_1 [Initial timer_1 reg] timer_1_reg = face5678
# timer_y2r = 78
# timer_r2g = e56
# timer_g2y = fac
# 
# UVM_INFO E:/UVM/APB_register_file/explicit/tb//apb_rf_scb.svh(15) @ 4545: uvm_test_top.rf_env_h.rf_scb [apb_rf_scb] data rcvd from mon_port, wr_enb =0, addr =8, din =47ae81b7, dout =47ae81b7
# UVM_INFO E:/UVM/APB_register_file/explicit/tb//apb_rf_scb.svh(53) @ 4545: uvm_test_top.rf_env_h.rf_scb [PASSED] ==== TEST IS PASSED ====
# UVM_INFO E:/UVM/APB_register_file/explicit/tb//apb_rf_scb.svh(64) @ 4545: uvm_test_top.rf_env_h.rf_scb [apb_rf_scb] output data is 47ae81b7
# UVM_INFO E:/UVM/APB_register_file/explicit/tb/seq_lib//reg_seq_write_read_t1.svh(26) @ 4570: uvm_test_top.rf_env_h.rf_agent_h.rf_sqr@@seq_1 [After Write ctl reg] timer_1_reg = 47ae81b7
# timer_y2r = b7
# timer_r2g = e81
# timer_g2y = 47a
# 
# UVM_INFO E:/UVM/APB_register_file/explicit/tb//apb_rf_scb.svh(15) @ 4585: uvm_test_top.rf_env_h.rf_scb [apb_rf_scb] data rcvd from mon_port, wr_enb =1, addr =8, din =12, dout =0
# UVM_INFO E:/UVM/APB_register_file/explicit/tb//apb_rf_scb.svh(29) @ 4585: uvm_test_top.rf_env_h.rf_scb [apb_rf_scb] input data is stored in t1 12
# UVM_INFO E:/UVM/APB_register_file/explicit/tb/seq_lib//reg_seq_write_read_t1.svh(33) @ 4610: uvm_test_top.rf_env_h.rf_agent_h.rf_sqr@@seq_1 [After read ctl reg] timer_1_reg = 12
# timer_y2r = 12
# timer_r2g = 0
# timer_g2y = 0
# 
# UVM_INFO E:/UVM/APB_register_file/explicit/tb//apb_rf_scb.svh(15) @ 4625: uvm_test_top.rf_env_h.rf_scb [apb_rf_scb] data rcvd from mon_port, wr_enb =0, addr =8, din =12, dout =12
# UVM_INFO E:/UVM/APB_register_file/explicit/tb//apb_rf_scb.svh(53) @ 4625: uvm_test_top.rf_env_h.rf_scb [PASSED] ==== TEST IS PASSED ====
# UVM_INFO E:/UVM/APB_register_file/explicit/tb//apb_rf_scb.svh(64) @ 4625: uvm_test_top.rf_env_h.rf_scb [apb_rf_scb] output data is 12
# UVM_INFO E:/UVM/APB_register_file/explicit/tb/seq_lib//reg_seq_write_t1.svh(20) @ 4650: uvm_test_top.rf_env_h.rf_agent_h.rf_sqr@@seq_2 [After Write ctl reg] timer_1_reg = 12
# timer_y2r = 12
# timer_r2g = 0
# timer_g2y = 0
# 
# UVM_INFO E:/UVM/APB_register_file/explicit/tb//apb_rf_scb.svh(15) @ 4665: uvm_test_top.rf_env_h.rf_scb [apb_rf_scb] data rcvd from mon_port, wr_enb =1, addr =8, din =dfcf6e78, dout =0
# UVM_INFO E:/UVM/APB_register_file/explicit/tb//apb_rf_scb.svh(29) @ 4665: uvm_test_top.rf_env_h.rf_scb [apb_rf_scb] input data is stored in t1 dfcf6e78
# UVM_INFO E:/UVM/APB_register_file/explicit/tb/seq_lib//reg_seq_read_t1.svh(19) @ 4690: uvm_test_top.rf_env_h.rf_agent_h.rf_sqr@@seq_3 [After read ctl reg] timer_1_reg = dfcf6e78
# timer_y2r = 78
# timer_r2g = f6e
# timer_g2y = dfc
# 
# UVM_INFO E:/UVM/APB_register_file/explicit/tb/seq_lib//reg_seq_write_read_t1.svh(18) @ 4690: uvm_test_top.rf_env_h.rf_agent_h.rf_sqr@@seq_1 [Initial timer_1 reg] timer_1_reg = face5678
# timer_y2r = 78
# timer_r2g = e56
# timer_g2y = fac
# 
# UVM_INFO E:/UVM/APB_register_file/explicit/tb//apb_rf_scb.svh(15) @ 4705: uvm_test_top.rf_env_h.rf_scb [apb_rf_scb] data rcvd from mon_port, wr_enb =0, addr =8, din =dfcf6e78, dout =dfcf6e78
# UVM_INFO E:/UVM/APB_register_file/explicit/tb//apb_rf_scb.svh(53) @ 4705: uvm_test_top.rf_env_h.rf_scb [PASSED] ==== TEST IS PASSED ====
# UVM_INFO E:/UVM/APB_register_file/explicit/tb//apb_rf_scb.svh(64) @ 4705: uvm_test_top.rf_env_h.rf_scb [apb_rf_scb] output data is dfcf6e78
# UVM_INFO E:/UVM/APB_register_file/explicit/tb/seq_lib//reg_seq_write_read_t1.svh(26) @ 4730: uvm_test_top.rf_env_h.rf_agent_h.rf_sqr@@seq_1 [After Write ctl reg] timer_1_reg = dfcf6e78
# timer_y2r = 78
# timer_r2g = f6e
# timer_g2y = dfc
# 
# UVM_INFO E:/UVM/APB_register_file/explicit/tb//apb_rf_scb.svh(15) @ 4745: uvm_test_top.rf_env_h.rf_scb [apb_rf_scb] data rcvd from mon_port, wr_enb =1, addr =8, din =1e, dout =0
# UVM_INFO E:/UVM/APB_register_file/explicit/tb//apb_rf_scb.svh(29) @ 4745: uvm_test_top.rf_env_h.rf_scb [apb_rf_scb] input data is stored in t1 1e
# UVM_INFO E:/UVM/APB_register_file/explicit/tb/seq_lib//reg_seq_write_read_t1.svh(33) @ 4770: uvm_test_top.rf_env_h.rf_agent_h.rf_sqr@@seq_1 [After read ctl reg] timer_1_reg = 1e
# timer_y2r = 1e
# timer_r2g = 0
# timer_g2y = 0
# 
# UVM_INFO E:/UVM/APB_register_file/explicit/tb//apb_rf_scb.svh(15) @ 4785: uvm_test_top.rf_env_h.rf_scb [apb_rf_scb] data rcvd from mon_port, wr_enb =0, addr =8, din =1e, dout =1e
# UVM_INFO E:/UVM/APB_register_file/explicit/tb//apb_rf_scb.svh(53) @ 4785: uvm_test_top.rf_env_h.rf_scb [PASSED] ==== TEST IS PASSED ====
# UVM_INFO E:/UVM/APB_register_file/explicit/tb//apb_rf_scb.svh(64) @ 4785: uvm_test_top.rf_env_h.rf_scb [apb_rf_scb] output data is 1e
# UVM_INFO E:/UVM/APB_register_file/explicit/tb/seq_lib//reg_seq_write_t1.svh(20) @ 4810: uvm_test_top.rf_env_h.rf_agent_h.rf_sqr@@seq_2 [After Write ctl reg] timer_1_reg = 1e
# timer_y2r = 1e
# timer_r2g = 0
# timer_g2y = 0
# 
# UVM_INFO E:/UVM/APB_register_file/explicit/tb//apb_rf_scb.svh(15) @ 4825: uvm_test_top.rf_env_h.rf_scb [apb_rf_scb] data rcvd from mon_port, wr_enb =1, addr =8, din =c8eda265, dout =0
# UVM_INFO E:/UVM/APB_register_file/explicit/tb//apb_rf_scb.svh(29) @ 4825: uvm_test_top.rf_env_h.rf_scb [apb_rf_scb] input data is stored in t1 c8eda265
# UVM_INFO E:/UVM/APB_register_file/explicit/tb/seq_lib//reg_seq_read_t1.svh(19) @ 4850: uvm_test_top.rf_env_h.rf_agent_h.rf_sqr@@seq_3 [After read ctl reg] timer_1_reg = c8eda265
# timer_y2r = 65
# timer_r2g = da2
# timer_g2y = c8e
# 
# UVM_INFO E:/UVM/APB_register_file/explicit/tb/seq_lib//reg_seq_write_read_t1.svh(18) @ 4850: uvm_test_top.rf_env_h.rf_agent_h.rf_sqr@@seq_1 [Initial timer_1 reg] timer_1_reg = face5678
# timer_y2r = 78
# timer_r2g = e56
# timer_g2y = fac
# 
# UVM_INFO E:/UVM/APB_register_file/explicit/tb//apb_rf_scb.svh(15) @ 4865: uvm_test_top.rf_env_h.rf_scb [apb_rf_scb] data rcvd from mon_port, wr_enb =0, addr =8, din =c8eda265, dout =c8eda265
# UVM_INFO E:/UVM/APB_register_file/explicit/tb//apb_rf_scb.svh(53) @ 4865: uvm_test_top.rf_env_h.rf_scb [PASSED] ==== TEST IS PASSED ====
# UVM_INFO E:/UVM/APB_register_file/explicit/tb//apb_rf_scb.svh(64) @ 4865: uvm_test_top.rf_env_h.rf_scb [apb_rf_scb] output data is c8eda265
# UVM_INFO E:/UVM/APB_register_file/explicit/tb/seq_lib//reg_seq_write_read_t1.svh(26) @ 4890: uvm_test_top.rf_env_h.rf_agent_h.rf_sqr@@seq_1 [After Write ctl reg] timer_1_reg = c8eda265
# timer_y2r = 65
# timer_r2g = da2
# timer_g2y = c8e
# 
# UVM_INFO E:/UVM/APB_register_file/explicit/tb//apb_rf_scb.svh(15) @ 4905: uvm_test_top.rf_env_h.rf_scb [apb_rf_scb] data rcvd from mon_port, wr_enb =1, addr =8, din =5, dout =0
# UVM_INFO E:/UVM/APB_register_file/explicit/tb//apb_rf_scb.svh(29) @ 4905: uvm_test_top.rf_env_h.rf_scb [apb_rf_scb] input data is stored in t1 5
# UVM_INFO E:/UVM/APB_register_file/explicit/tb/seq_lib//reg_seq_write_read_t1.svh(33) @ 4930: uvm_test_top.rf_env_h.rf_agent_h.rf_sqr@@seq_1 [After read ctl reg] timer_1_reg = 5
# timer_y2r = 5
# timer_r2g = 0
# timer_g2y = 0
# 
# UVM_INFO E:/UVM/APB_register_file/explicit/tb//apb_rf_scb.svh(15) @ 4945: uvm_test_top.rf_env_h.rf_scb [apb_rf_scb] data rcvd from mon_port, wr_enb =0, addr =8, din =5, dout =5
# UVM_INFO E:/UVM/APB_register_file/explicit/tb//apb_rf_scb.svh(53) @ 4945: uvm_test_top.rf_env_h.rf_scb [PASSED] ==== TEST IS PASSED ====
# UVM_INFO E:/UVM/APB_register_file/explicit/tb//apb_rf_scb.svh(64) @ 4945: uvm_test_top.rf_env_h.rf_scb [apb_rf_scb] output data is 5
# UVM_INFO E:/UVM/APB_register_file/explicit/tb/seq_lib//reg_seq_write_t1.svh(20) @ 4970: uvm_test_top.rf_env_h.rf_agent_h.rf_sqr@@seq_2 [After Write ctl reg] timer_1_reg = 5
# timer_y2r = 5
# timer_r2g = 0
# timer_g2y = 0
# 
# UVM_INFO E:/UVM/APB_register_file/explicit/tb//apb_rf_scb.svh(15) @ 4985: uvm_test_top.rf_env_h.rf_scb [apb_rf_scb] data rcvd from mon_port, wr_enb =1, addr =8, din =112ad7a5, dout =0
# UVM_INFO E:/UVM/APB_register_file/explicit/tb//apb_rf_scb.svh(29) @ 4985: uvm_test_top.rf_env_h.rf_scb [apb_rf_scb] input data is stored in t1 112ad7a5
# UVM_INFO E:/UVM/APB_register_file/explicit/tb/seq_lib//reg_seq_read_t1.svh(19) @ 5010: uvm_test_top.rf_env_h.rf_agent_h.rf_sqr@@seq_3 [After read ctl reg] timer_1_reg = 112ad7a5
# timer_y2r = a5
# timer_r2g = ad7
# timer_g2y = 112
# 
# UVM_INFO E:/UVM/APB_register_file/explicit/tb/seq_lib//reg_seq_write_read_t1.svh(18) @ 5010: uvm_test_top.rf_env_h.rf_agent_h.rf_sqr@@seq_1 [Initial timer_1 reg] timer_1_reg = face5678
# timer_y2r = 78
# timer_r2g = e56
# timer_g2y = fac
# 
# UVM_INFO E:/UVM/APB_register_file/explicit/tb//apb_rf_scb.svh(15) @ 5025: uvm_test_top.rf_env_h.rf_scb [apb_rf_scb] data rcvd from mon_port, wr_enb =0, addr =8, din =112ad7a5, dout =112ad7a5
# UVM_INFO E:/UVM/APB_register_file/explicit/tb//apb_rf_scb.svh(53) @ 5025: uvm_test_top.rf_env_h.rf_scb [PASSED] ==== TEST IS PASSED ====
# UVM_INFO E:/UVM/APB_register_file/explicit/tb//apb_rf_scb.svh(64) @ 5025: uvm_test_top.rf_env_h.rf_scb [apb_rf_scb] output data is 112ad7a5
# UVM_INFO E:/UVM/APB_register_file/explicit/tb/seq_lib//reg_seq_write_read_t1.svh(26) @ 5050: uvm_test_top.rf_env_h.rf_agent_h.rf_sqr@@seq_1 [After Write ctl reg] timer_1_reg = 112ad7a5
# timer_y2r = a5
# timer_r2g = ad7
# timer_g2y = 112
# 
# UVM_INFO E:/UVM/APB_register_file/explicit/tb//apb_rf_scb.svh(15) @ 5065: uvm_test_top.rf_env_h.rf_scb [apb_rf_scb] data rcvd from mon_port, wr_enb =1, addr =8, din =9, dout =0
# UVM_INFO E:/UVM/APB_register_file/explicit/tb//apb_rf_scb.svh(29) @ 5065: uvm_test_top.rf_env_h.rf_scb [apb_rf_scb] input data is stored in t1 9
# UVM_INFO E:/UVM/APB_register_file/explicit/tb/seq_lib//reg_seq_write_read_t1.svh(33) @ 5090: uvm_test_top.rf_env_h.rf_agent_h.rf_sqr@@seq_1 [After read ctl reg] timer_1_reg = 9
# timer_y2r = 9
# timer_r2g = 0
# timer_g2y = 0
# 
# UVM_INFO E:/UVM/APB_register_file/explicit/tb//apb_rf_scb.svh(15) @ 5105: uvm_test_top.rf_env_h.rf_scb [apb_rf_scb] data rcvd from mon_port, wr_enb =0, addr =8, din =9, dout =9
# UVM_INFO E:/UVM/APB_register_file/explicit/tb//apb_rf_scb.svh(53) @ 5105: uvm_test_top.rf_env_h.rf_scb [PASSED] ==== TEST IS PASSED ====
# UVM_INFO E:/UVM/APB_register_file/explicit/tb//apb_rf_scb.svh(64) @ 5105: uvm_test_top.rf_env_h.rf_scb [apb_rf_scb] output data is 9
# UVM_INFO E:/UVM/APB_register_file/explicit/tb/seq_lib//reg_seq_write_t1.svh(20) @ 5130: uvm_test_top.rf_env_h.rf_agent_h.rf_sqr@@seq_2 [After Write ctl reg] timer_1_reg = 9
# timer_y2r = 9
# timer_r2g = 0
# timer_g2y = 0
# 
# UVM_INFO E:/UVM/APB_register_file/explicit/tb//apb_rf_scb.svh(15) @ 5145: uvm_test_top.rf_env_h.rf_scb [apb_rf_scb] data rcvd from mon_port, wr_enb =1, addr =8, din =d71154ff, dout =0
# UVM_INFO E:/UVM/APB_register_file/explicit/tb//apb_rf_scb.svh(29) @ 5145: uvm_test_top.rf_env_h.rf_scb [apb_rf_scb] input data is stored in t1 d71154ff
# UVM_INFO E:/UVM/APB_register_file/explicit/tb/seq_lib//reg_seq_read_t1.svh(19) @ 5170: uvm_test_top.rf_env_h.rf_agent_h.rf_sqr@@seq_3 [After read ctl reg] timer_1_reg = d71154ff
# timer_y2r = ff
# timer_r2g = 154
# timer_g2y = d71
# 
# UVM_INFO E:/UVM/APB_register_file/explicit/tb/seq_lib//reg_seq_write_read_t1.svh(18) @ 5170: uvm_test_top.rf_env_h.rf_agent_h.rf_sqr@@seq_1 [Initial timer_1 reg] timer_1_reg = face5678
# timer_y2r = 78
# timer_r2g = e56
# timer_g2y = fac
# 
# UVM_INFO E:/UVM/APB_register_file/explicit/tb//apb_rf_scb.svh(15) @ 5185: uvm_test_top.rf_env_h.rf_scb [apb_rf_scb] data rcvd from mon_port, wr_enb =0, addr =8, din =d71154ff, dout =d71154ff
# UVM_INFO E:/UVM/APB_register_file/explicit/tb//apb_rf_scb.svh(53) @ 5185: uvm_test_top.rf_env_h.rf_scb [PASSED] ==== TEST IS PASSED ====
# UVM_INFO E:/UVM/APB_register_file/explicit/tb//apb_rf_scb.svh(64) @ 5185: uvm_test_top.rf_env_h.rf_scb [apb_rf_scb] output data is d71154ff
# UVM_INFO E:/UVM/APB_register_file/explicit/tb/seq_lib//reg_seq_write_read_t1.svh(26) @ 5210: uvm_test_top.rf_env_h.rf_agent_h.rf_sqr@@seq_1 [After Write ctl reg] timer_1_reg = d71154ff
# timer_y2r = ff
# timer_r2g = 154
# timer_g2y = d71
# 
# UVM_INFO E:/UVM/APB_register_file/explicit/tb//apb_rf_scb.svh(15) @ 5225: uvm_test_top.rf_env_h.rf_scb [apb_rf_scb] data rcvd from mon_port, wr_enb =1, addr =8, din =1b, dout =0
# UVM_INFO E:/UVM/APB_register_file/explicit/tb//apb_rf_scb.svh(29) @ 5225: uvm_test_top.rf_env_h.rf_scb [apb_rf_scb] input data is stored in t1 1b
# UVM_INFO E:/UVM/APB_register_file/explicit/tb/seq_lib//reg_seq_write_read_t1.svh(33) @ 5250: uvm_test_top.rf_env_h.rf_agent_h.rf_sqr@@seq_1 [After read ctl reg] timer_1_reg = 1b
# timer_y2r = 1b
# timer_r2g = 0
# timer_g2y = 0
# 
# UVM_INFO E:/UVM/APB_register_file/explicit/tb//apb_rf_scb.svh(15) @ 5265: uvm_test_top.rf_env_h.rf_scb [apb_rf_scb] data rcvd from mon_port, wr_enb =0, addr =8, din =1b, dout =1b
# UVM_INFO E:/UVM/APB_register_file/explicit/tb//apb_rf_scb.svh(53) @ 5265: uvm_test_top.rf_env_h.rf_scb [PASSED] ==== TEST IS PASSED ====
# UVM_INFO E:/UVM/APB_register_file/explicit/tb//apb_rf_scb.svh(64) @ 5265: uvm_test_top.rf_env_h.rf_scb [apb_rf_scb] output data is 1b
# UVM_INFO E:/UVM/APB_register_file/explicit/tb/seq_lib//reg_seq_write_t1.svh(20) @ 5290: uvm_test_top.rf_env_h.rf_agent_h.rf_sqr@@seq_2 [After Write ctl reg] timer_1_reg = 1b
# timer_y2r = 1b
# timer_r2g = 0
# timer_g2y = 0
# 
# UVM_INFO E:/UVM/APB_register_file/explicit/tb//apb_rf_scb.svh(15) @ 5305: uvm_test_top.rf_env_h.rf_scb [apb_rf_scb] data rcvd from mon_port, wr_enb =1, addr =8, din =cb253c96, dout =0
# UVM_INFO E:/UVM/APB_register_file/explicit/tb//apb_rf_scb.svh(29) @ 5305: uvm_test_top.rf_env_h.rf_scb [apb_rf_scb] input data is stored in t1 cb253c96
# UVM_INFO E:/UVM/APB_register_file/explicit/tb/seq_lib//reg_seq_read_t1.svh(19) @ 5330: uvm_test_top.rf_env_h.rf_agent_h.rf_sqr@@seq_3 [After read ctl reg] timer_1_reg = cb253c96
# timer_y2r = 96
# timer_r2g = 53c
# timer_g2y = cb2
# 
# UVM_INFO E:/UVM/APB_register_file/explicit/tb/seq_lib//reg_seq_write_read_t1.svh(18) @ 5330: uvm_test_top.rf_env_h.rf_agent_h.rf_sqr@@seq_1 [Initial timer_1 reg] timer_1_reg = face5678
# timer_y2r = 78
# timer_r2g = e56
# timer_g2y = fac
# 
# UVM_INFO E:/UVM/APB_register_file/explicit/tb//apb_rf_scb.svh(15) @ 5345: uvm_test_top.rf_env_h.rf_scb [apb_rf_scb] data rcvd from mon_port, wr_enb =0, addr =8, din =cb253c96, dout =cb253c96
# UVM_INFO E:/UVM/APB_register_file/explicit/tb//apb_rf_scb.svh(53) @ 5345: uvm_test_top.rf_env_h.rf_scb [PASSED] ==== TEST IS PASSED ====
# UVM_INFO E:/UVM/APB_register_file/explicit/tb//apb_rf_scb.svh(64) @ 5345: uvm_test_top.rf_env_h.rf_scb [apb_rf_scb] output data is cb253c96
# UVM_INFO E:/UVM/APB_register_file/explicit/tb/seq_lib//reg_seq_write_read_t1.svh(26) @ 5370: uvm_test_top.rf_env_h.rf_agent_h.rf_sqr@@seq_1 [After Write ctl reg] timer_1_reg = cb253c96
# timer_y2r = 96
# timer_r2g = 53c
# timer_g2y = cb2
# 
# UVM_INFO E:/UVM/APB_register_file/explicit/tb//apb_rf_scb.svh(15) @ 5385: uvm_test_top.rf_env_h.rf_scb [apb_rf_scb] data rcvd from mon_port, wr_enb =1, addr =8, din =9, dout =0
# UVM_INFO E:/UVM/APB_register_file/explicit/tb//apb_rf_scb.svh(29) @ 5385: uvm_test_top.rf_env_h.rf_scb [apb_rf_scb] input data is stored in t1 9
# UVM_INFO E:/UVM/APB_register_file/explicit/tb/seq_lib//reg_seq_write_read_t1.svh(33) @ 5410: uvm_test_top.rf_env_h.rf_agent_h.rf_sqr@@seq_1 [After read ctl reg] timer_1_reg = 9
# timer_y2r = 9
# timer_r2g = 0
# timer_g2y = 0
# 
# UVM_INFO E:/UVM/APB_register_file/explicit/tb//apb_rf_scb.svh(15) @ 5425: uvm_test_top.rf_env_h.rf_scb [apb_rf_scb] data rcvd from mon_port, wr_enb =0, addr =8, din =9, dout =9
# UVM_INFO E:/UVM/APB_register_file/explicit/tb//apb_rf_scb.svh(53) @ 5425: uvm_test_top.rf_env_h.rf_scb [PASSED] ==== TEST IS PASSED ====
# UVM_INFO E:/UVM/APB_register_file/explicit/tb//apb_rf_scb.svh(64) @ 5425: uvm_test_top.rf_env_h.rf_scb [apb_rf_scb] output data is 9
# UVM_INFO E:/UVM/APB_register_file/explicit/tb/seq_lib//reg_seq_write_t1.svh(20) @ 5450: uvm_test_top.rf_env_h.rf_agent_h.rf_sqr@@seq_2 [After Write ctl reg] timer_1_reg = 9
# timer_y2r = 9
# timer_r2g = 0
# timer_g2y = 0
# 
# UVM_INFO E:/UVM/APB_register_file/explicit/tb//apb_rf_scb.svh(15) @ 5465: uvm_test_top.rf_env_h.rf_scb [apb_rf_scb] data rcvd from mon_port, wr_enb =1, addr =8, din =49355258, dout =0
# UVM_INFO E:/UVM/APB_register_file/explicit/tb//apb_rf_scb.svh(29) @ 5465: uvm_test_top.rf_env_h.rf_scb [apb_rf_scb] input data is stored in t1 49355258
# UVM_INFO E:/UVM/APB_register_file/explicit/tb/seq_lib//reg_seq_read_t1.svh(19) @ 5490: uvm_test_top.rf_env_h.rf_agent_h.rf_sqr@@seq_3 [After read ctl reg] timer_1_reg = 49355258
# timer_y2r = 58
# timer_r2g = 552
# timer_g2y = 493
# 
# UVM_INFO E:/UVM/APB_register_file/explicit/tb/seq_lib//reg_seq_write_read_t1.svh(18) @ 5490: uvm_test_top.rf_env_h.rf_agent_h.rf_sqr@@seq_1 [Initial timer_1 reg] timer_1_reg = face5678
# timer_y2r = 78
# timer_r2g = e56
# timer_g2y = fac
# 
# UVM_INFO E:/UVM/APB_register_file/explicit/tb//apb_rf_scb.svh(15) @ 5505: uvm_test_top.rf_env_h.rf_scb [apb_rf_scb] data rcvd from mon_port, wr_enb =0, addr =8, din =49355258, dout =49355258
# UVM_INFO E:/UVM/APB_register_file/explicit/tb//apb_rf_scb.svh(53) @ 5505: uvm_test_top.rf_env_h.rf_scb [PASSED] ==== TEST IS PASSED ====
# UVM_INFO E:/UVM/APB_register_file/explicit/tb//apb_rf_scb.svh(64) @ 5505: uvm_test_top.rf_env_h.rf_scb [apb_rf_scb] output data is 49355258
# UVM_INFO E:/UVM/APB_register_file/explicit/tb/seq_lib//reg_seq_write_read_t1.svh(26) @ 5530: uvm_test_top.rf_env_h.rf_agent_h.rf_sqr@@seq_1 [After Write ctl reg] timer_1_reg = 49355258
# timer_y2r = 58
# timer_r2g = 552
# timer_g2y = 493
# 
# UVM_INFO E:/UVM/APB_register_file/explicit/tb//apb_rf_scb.svh(15) @ 5545: uvm_test_top.rf_env_h.rf_scb [apb_rf_scb] data rcvd from mon_port, wr_enb =1, addr =8, din =18, dout =0
# UVM_INFO E:/UVM/APB_register_file/explicit/tb//apb_rf_scb.svh(29) @ 5545: uvm_test_top.rf_env_h.rf_scb [apb_rf_scb] input data is stored in t1 18
# UVM_INFO E:/UVM/APB_register_file/explicit/tb/seq_lib//reg_seq_write_read_t1.svh(33) @ 5570: uvm_test_top.rf_env_h.rf_agent_h.rf_sqr@@seq_1 [After read ctl reg] timer_1_reg = 18
# timer_y2r = 18
# timer_r2g = 0
# timer_g2y = 0
# 
# UVM_INFO E:/UVM/APB_register_file/explicit/tb//apb_rf_scb.svh(15) @ 5585: uvm_test_top.rf_env_h.rf_scb [apb_rf_scb] data rcvd from mon_port, wr_enb =0, addr =8, din =18, dout =18
# UVM_INFO E:/UVM/APB_register_file/explicit/tb//apb_rf_scb.svh(53) @ 5585: uvm_test_top.rf_env_h.rf_scb [PASSED] ==== TEST IS PASSED ====
# UVM_INFO E:/UVM/APB_register_file/explicit/tb//apb_rf_scb.svh(64) @ 5585: uvm_test_top.rf_env_h.rf_scb [apb_rf_scb] output data is 18
# UVM_INFO E:/UVM/APB_register_file/explicit/tb/seq_lib//reg_seq_write_t1.svh(20) @ 5610: uvm_test_top.rf_env_h.rf_agent_h.rf_sqr@@seq_2 [After Write ctl reg] timer_1_reg = 18
